# vsim -c tb_uvm_top "+UVM_TESTNAME=bridge_corners_test" "+UVM_VERBOSITY=UVM_MEDIUM" -voptargs="+acc" -do "run -all; quit" 
# Start time: 15:02:34 on Mar 16,2026
# ** Note: (vsim-3812) Design is being optimized...
# ** Note: (vopt-143) Recognized 1 FSM in module "ahb_apb_bridge(fast)".
# //  Questa Sim-64
# //  Version 2019.2 linux_x86_64 Apr 16 2019
# //
# //  Copyright 1991-2019 Mentor Graphics Corporation
# //  All Rights Reserved.
# //
# //  QuestaSim and its associated documentation contain trade
# //  secrets and commercial or financial information that are the property of
# //  Mentor Graphics Corporation and are privileged, confidential,
# //  and exempt from disclosure under the Freedom of Information Act,
# //  5 U.S.C. Section 552. Furthermore, this information
# //  is prohibited from disclosure under the Trade Secrets Act,
# //  18 U.S.C. Section 1905.
# //
# Loading sv_std.std
# Loading work.ahb_apb_if(fast)
# Loading mtiUvm.uvm_pkg
# Loading work.ahb_apb_txn_pkg(fast)
# Loading work.apb_agent_pkg(fast)
# Loading work.ahb_agent_pkg(fast)
# Loading work.bridge_env_pkg(fast)
# Loading work.bridge_test_pkg(fast)
# Loading work.tb_uvm_top_sv_unit(fast)
# Loading mtiUvm.questa_uvm_pkg(fast)
# Loading work.tb_uvm_top(fast)
# Loading work.ahb_apb_if(fast)
# Loading work.ahb_apb_bridge(fast)
# Loading /home/cad/eda/Questa_2019/questasim/uvm-1.1d/linux_x86_64/uvm_dpi.so
# run -all
# ----------------------------------------------------------------
# UVM-1.1d
# (C) 2007-2013 Mentor Graphics Corporation
# (C) 2007-2013 Cadence Design Systems, Inc.
# (C) 2006-2013 Synopsys, Inc.
# (C) 2011-2013 Cypress Semiconductor Corp.
# ----------------------------------------------------------------
# 
#   ***********       IMPORTANT RELEASE NOTES         ************
# 
#   You are using a version of the UVM library that has been compiled
#   with `UVM_NO_DEPRECATED undefined.
#   See http://www.eda.org/svdb/view.php?id=3313 for more details.
# 
#   You are using a version of the UVM library that has been compiled
#   with `UVM_OBJECT_MUST_HAVE_CONSTRUCTOR undefined.
#   See http://www.eda.org/svdb/view.php?id=3770 for more details.
# 
#       (Specify +UVM_NO_RELNOTES to turn off this notice)
# 
# UVM_INFO verilog_src/questa_uvm_pkg-1.2/src/questa_uvm_pkg.sv(277) @ 0: reporter [Questa UVM] QUESTA_UVM-1.2.3
# UVM_INFO verilog_src/questa_uvm_pkg-1.2/src/questa_uvm_pkg.sv(278) @ 0: reporter [Questa UVM]  questa_uvm::init(+struct)
# UVM_INFO @ 0: reporter [RNTST] Running test bridge_corners_test...
# UVM_WARNING @ 0: reporter [TYPDUP] Original and override type arguments are identical: ahb_agent
# UVM_WARNING @ 0: reporter [TYPDUP] Original and override type arguments are identical: apb_agent
# UVM_INFO @ 0: reporter [UVMTOP] UVM testbench topology:
# ------------------------------------------------------------------
# Name                       Type                        Size  Value
# ------------------------------------------------------------------
# uvm_test_top               bridge_corners_test         -     @471 
#   env                      bridge_env                  -     @478 
#     ahb_agnt               ahb_agent                   -     @485 
#       ap                   uvm_analysis_port           -     @529 
#       drv                  ahb_driver                  -     @646 
#         rsp_port           uvm_analysis_port           -     @661 
#         seq_item_port      uvm_seq_item_pull_port      -     @653 
#       mon                  ahb_monitor                 -     @522 
#         ap                 uvm_analysis_port           -     @670 
#       seqr                 ahb_sequencer               -     @537 
#         rsp_export         uvm_analysis_export         -     @544 
#         seq_item_export    uvm_seq_item_pull_imp       -     @638 
#         arbitration_queue  array                       0     -    
#         lock_queue         array                       0     -    
#         num_last_reqs      integral                    32    'd1  
#         num_last_rsps      integral                    32    'd1  
#     apb_agnt               apb_agent                   -     @492 
#       ap                   uvm_analysis_port           -     @699 
#       mon                  apb_monitor                 -     @685 
#         ap                 uvm_analysis_port           -     @707 
#       slave                apb_slave_model             -     @692 
#     coverage               bridge_coverage             -     @506 
#       analysis_imp         uvm_analysis_imp            -     @513 
#     scoreboard             bridge_scoreboard           -     @499 
#       ahb_fifo             uvm_tlm_analysis_fifo #(T)  -     @717 
#         analysis_export    uvm_analysis_imp            -     @756 
#         get_ap             uvm_analysis_port           -     @748 
#         get_peek_export    uvm_get_peek_imp            -     @732 
#         put_ap             uvm_analysis_port           -     @740 
#         put_export         uvm_put_imp                 -     @724 
#       apb_fifo             uvm_tlm_analysis_fifo #(T)  -     @764 
#         analysis_export    uvm_analysis_imp            -     @803 
#         get_ap             uvm_analysis_port           -     @795 
#         get_peek_export    uvm_get_peek_imp            -     @779 
#         put_ap             uvm_analysis_port           -     @787 
#         put_export         uvm_put_imp                 -     @771 
# ------------------------------------------------------------------
# 
# UVM_INFO ../tb/tests/bridge_test_pkg.sv(617) @ 0: uvm_test_top [CORNERS_TEST] Starting data corners test
# UVM_INFO ../tb/tests/bridge_test_pkg.sv(572) @ 0: uvm_test_top.env.ahb_agnt.seqr@@corners [CORNERS_SEQ] Driving data corner cases
# UVM_INFO ../tb/top/tb_uvm_top.sv(128) @ 46000: reporter [TOP] Reset released - starting UVM
# [TOP MON] t=85000 psel=1 penable=0 paddr=0x00000010 pwdata=0x00000000
# UVM_INFO ../tb/agent_ahb/ahb_agent_pkg.sv(251) @ 86000: uvm_test_top.env.ahb_agnt.mon [AHB_MON] Captured: TXN: AHB_WRITE addr=0x00000010 data=0x00000000 trans=HTRANS_NONSEQ resp=HRESP_OKAY delay=0
# UVM_INFO ../tb/agent_apb/apb_agent_pkg.sv(123) @ 95000: uvm_test_top.env.apb_agnt.mon [APB_MON] Captured: TXN: AHB_WRITE addr=0x00000010 data=0x00000000 trans=HTRANS_NONSEQ resp=HRESP_OKAY delay=0
# [TOP MON] t=95000 psel=1 penable=1 paddr=0x00000010 pwdata=0x00000000
# UVM_INFO ../tb/env/bridge_env_pkg.sv(85) @ 95000: uvm_test_top.env.scoreboard [SBOARD] [PASS] AHB_WRITE addr=0x00000010 data=0x00000000
# [TOP MON] t=135000 psel=1 penable=0 paddr=0x00000014 pwdata=0xffffffff
# UVM_INFO ../tb/agent_ahb/ahb_agent_pkg.sv(251) @ 136000: uvm_test_top.env.ahb_agnt.mon [AHB_MON] Captured: TXN: AHB_WRITE addr=0x00000014 data=0xffffffff trans=HTRANS_NONSEQ resp=HRESP_OKAY delay=0
# UVM_INFO ../tb/agent_apb/apb_agent_pkg.sv(123) @ 145000: uvm_test_top.env.apb_agnt.mon [APB_MON] Captured: TXN: AHB_WRITE addr=0x00000014 data=0xffffffff trans=HTRANS_NONSEQ resp=HRESP_OKAY delay=0
# [TOP MON] t=145000 psel=1 penable=1 paddr=0x00000014 pwdata=0xffffffff
# UVM_INFO ../tb/env/bridge_env_pkg.sv(85) @ 145000: uvm_test_top.env.scoreboard [SBOARD] [PASS] AHB_WRITE addr=0x00000014 data=0xffffffff
# [TOP MON] t=185000 psel=1 penable=0 paddr=0x00000018 pwdata=0xaaaaaaaa
# UVM_INFO ../tb/agent_ahb/ahb_agent_pkg.sv(251) @ 186000: uvm_test_top.env.ahb_agnt.mon [AHB_MON] Captured: TXN: AHB_WRITE addr=0x00000018 data=0xaaaaaaaa trans=HTRANS_NONSEQ resp=HRESP_OKAY delay=0
# UVM_INFO ../tb/agent_apb/apb_agent_pkg.sv(123) @ 195000: uvm_test_top.env.apb_agnt.mon [APB_MON] Captured: TXN: AHB_WRITE addr=0x00000018 data=0xaaaaaaaa trans=HTRANS_NONSEQ resp=HRESP_OKAY delay=0
# [TOP MON] t=195000 psel=1 penable=1 paddr=0x00000018 pwdata=0xaaaaaaaa
# UVM_INFO ../tb/env/bridge_env_pkg.sv(85) @ 195000: uvm_test_top.env.scoreboard [SBOARD] [PASS] AHB_WRITE addr=0x00000018 data=0xaaaaaaaa
# [TOP MON] t=235000 psel=1 penable=0 paddr=0x0000001c pwdata=0x55555555
# UVM_INFO ../tb/agent_ahb/ahb_agent_pkg.sv(251) @ 236000: uvm_test_top.env.ahb_agnt.mon [AHB_MON] Captured: TXN: AHB_WRITE addr=0x0000001c data=0x55555555 trans=HTRANS_NONSEQ resp=HRESP_OKAY delay=0
# UVM_INFO ../tb/agent_apb/apb_agent_pkg.sv(123) @ 245000: uvm_test_top.env.apb_agnt.mon [APB_MON] Captured: TXN: AHB_WRITE addr=0x0000001c data=0x55555555 trans=HTRANS_NONSEQ resp=HRESP_OKAY delay=0
# [TOP MON] t=245000 psel=1 penable=1 paddr=0x0000001c pwdata=0x55555555
# UVM_INFO ../tb/env/bridge_env_pkg.sv(85) @ 245000: uvm_test_top.env.scoreboard [SBOARD] [PASS] AHB_WRITE addr=0x0000001c data=0x55555555
# [TOP MON] t=275000 psel=1 penable=0 paddr=0x00000010 pwdata=0x00000000
# UVM_INFO ../tb/agent_ahb/ahb_agent_pkg.sv(251) @ 276000: uvm_test_top.env.ahb_agnt.mon [AHB_MON] Captured: TXN: AHB_READ addr=0x00000010 data=0x00000000 trans=HTRANS_NONSEQ resp=HRESP_OKAY delay=0
# UVM_INFO ../tb/agent_apb/apb_agent_pkg.sv(123) @ 285000: uvm_test_top.env.apb_agnt.mon [APB_MON] Captured: TXN: AHB_READ addr=0x00000010 data=0x00000000 trans=HTRANS_NONSEQ resp=HRESP_OKAY delay=0
# [TOP MON] t=285000 psel=1 penable=1 paddr=0x00000010 pwdata=0x00000000
# UVM_INFO ../tb/env/bridge_env_pkg.sv(85) @ 285000: uvm_test_top.env.scoreboard [SBOARD] [PASS] AHB_READ addr=0x00000010 data=0x00000000
# [TOP MON] t=315000 psel=1 penable=0 paddr=0x00000014 pwdata=0x00000000
# UVM_INFO ../tb/agent_ahb/ahb_agent_pkg.sv(251) @ 316000: uvm_test_top.env.ahb_agnt.mon [AHB_MON] Captured: TXN: AHB_READ addr=0x00000014 data=0xffffffff trans=HTRANS_NONSEQ resp=HRESP_OKAY delay=0
# UVM_INFO ../tb/agent_apb/apb_agent_pkg.sv(123) @ 325000: uvm_test_top.env.apb_agnt.mon [APB_MON] Captured: TXN: AHB_READ addr=0x00000014 data=0xffffffff trans=HTRANS_NONSEQ resp=HRESP_OKAY delay=0
# [TOP MON] t=325000 psel=1 penable=1 paddr=0x00000014 pwdata=0x00000000
# UVM_INFO ../tb/env/bridge_env_pkg.sv(85) @ 325000: uvm_test_top.env.scoreboard [SBOARD] [PASS] AHB_READ addr=0x00000014 data=0xffffffff
# [TOP MON] t=355000 psel=1 penable=0 paddr=0x00000018 pwdata=0x00000000
# UVM_INFO ../tb/agent_ahb/ahb_agent_pkg.sv(251) @ 356000: uvm_test_top.env.ahb_agnt.mon [AHB_MON] Captured: TXN: AHB_READ addr=0x00000018 data=0xaaaaaaaa trans=HTRANS_NONSEQ resp=HRESP_OKAY delay=0
# UVM_INFO ../tb/agent_apb/apb_agent_pkg.sv(123) @ 365000: uvm_test_top.env.apb_agnt.mon [APB_MON] Captured: TXN: AHB_READ addr=0x00000018 data=0xaaaaaaaa trans=HTRANS_NONSEQ resp=HRESP_OKAY delay=0
# [TOP MON] t=365000 psel=1 penable=1 paddr=0x00000018 pwdata=0x00000000
# UVM_INFO ../tb/env/bridge_env_pkg.sv(85) @ 365000: uvm_test_top.env.scoreboard [SBOARD] [PASS] AHB_READ addr=0x00000018 data=0xaaaaaaaa
# [TOP MON] t=395000 psel=1 penable=0 paddr=0x0000001c pwdata=0x00000000
# UVM_INFO ../tb/agent_ahb/ahb_agent_pkg.sv(251) @ 396000: uvm_test_top.env.ahb_agnt.mon [AHB_MON] Captured: TXN: AHB_READ addr=0x0000001c data=0x55555555 trans=HTRANS_NONSEQ resp=HRESP_OKAY delay=0
# UVM_INFO ../tb/agent_apb/apb_agent_pkg.sv(123) @ 405000: uvm_test_top.env.apb_agnt.mon [APB_MON] Captured: TXN: AHB_READ addr=0x0000001c data=0x55555555 trans=HTRANS_NONSEQ resp=HRESP_OKAY delay=0
# [TOP MON] t=405000 psel=1 penable=1 paddr=0x0000001c pwdata=0x00000000
# UVM_INFO ../tb/env/bridge_env_pkg.sv(85) @ 405000: uvm_test_top.env.scoreboard [SBOARD] [PASS] AHB_READ addr=0x0000001c data=0x55555555
# UVM_INFO ../tb/tests/bridge_test_pkg.sv(596) @ 410000: uvm_test_top.env.ahb_agnt.seqr@@corners [CORNERS_SEQ] Data corner cases complete
# UVM_INFO ../tb/tests/bridge_test_pkg.sv(280) @ 410000: uvm_test_top.env.ahb_agnt.seqr@@rseq [RAND_SEQ] Random sequence: count=100
# [TOP MON] t=435000 psel=1 penable=0 paddr=0x00000054 pwdata=0x00000000
# UVM_INFO ../tb/agent_ahb/ahb_agent_pkg.sv(251) @ 436000: uvm_test_top.env.ahb_agnt.mon [AHB_MON] Captured: TXN: AHB_READ addr=0x00000054 data=0xa5a50015 trans=HTRANS_NONSEQ resp=HRESP_OKAY delay=0
# UVM_INFO ../tb/agent_apb/apb_agent_pkg.sv(123) @ 445000: uvm_test_top.env.apb_agnt.mon [APB_MON] Captured: TXN: AHB_READ addr=0x00000054 data=0xa5a50015 trans=HTRANS_NONSEQ resp=HRESP_OKAY delay=0
# [TOP MON] t=445000 psel=1 penable=1 paddr=0x00000054 pwdata=0x00000000
# UVM_INFO ../tb/env/bridge_env_pkg.sv(85) @ 445000: uvm_test_top.env.scoreboard [SBOARD] [PASS] AHB_READ addr=0x00000054 data=0xa5a50015
# [TOP MON] t=515000 psel=1 penable=0 paddr=0x00000068 pwdata=0xbd93e41f
# UVM_INFO ../tb/agent_ahb/ahb_agent_pkg.sv(251) @ 516000: uvm_test_top.env.ahb_agnt.mon [AHB_MON] Captured: TXN: AHB_WRITE addr=0x00000068 data=0xbd93e41f trans=HTRANS_NONSEQ resp=HRESP_OKAY delay=0
# UVM_INFO ../tb/agent_apb/apb_agent_pkg.sv(123) @ 525000: uvm_test_top.env.apb_agnt.mon [APB_MON] Captured: TXN: AHB_WRITE addr=0x00000068 data=0xbd93e41f trans=HTRANS_NONSEQ resp=HRESP_OKAY delay=0
# [TOP MON] t=525000 psel=1 penable=1 paddr=0x00000068 pwdata=0xbd93e41f
# UVM_INFO ../tb/env/bridge_env_pkg.sv(85) @ 525000: uvm_test_top.env.scoreboard [SBOARD] [PASS] AHB_WRITE addr=0x00000068 data=0xbd93e41f
# [TOP MON] t=595000 psel=1 penable=0 paddr=0x00000088 pwdata=0x0347417c
# UVM_INFO ../tb/agent_ahb/ahb_agent_pkg.sv(251) @ 596000: uvm_test_top.env.ahb_agnt.mon [AHB_MON] Captured: TXN: AHB_WRITE addr=0x00000088 data=0x0347417c trans=HTRANS_NONSEQ resp=HRESP_OKAY delay=0
# UVM_INFO ../tb/agent_apb/apb_agent_pkg.sv(123) @ 605000: uvm_test_top.env.apb_agnt.mon [APB_MON] Captured: TXN: AHB_WRITE addr=0x00000088 data=0x0347417c trans=HTRANS_NONSEQ resp=HRESP_OKAY delay=0
# [TOP MON] t=605000 psel=1 penable=1 paddr=0x00000088 pwdata=0x0347417c
# UVM_INFO ../tb/env/bridge_env_pkg.sv(85) @ 605000: uvm_test_top.env.scoreboard [SBOARD] [PASS] AHB_WRITE addr=0x00000088 data=0x0347417c
# [TOP MON] t=725000 psel=1 penable=0 paddr=0x00000058 pwdata=0xccc90eb0
# UVM_INFO ../tb/agent_ahb/ahb_agent_pkg.sv(251) @ 726000: uvm_test_top.env.ahb_agnt.mon [AHB_MON] Captured: TXN: AHB_WRITE addr=0x00000058 data=0xccc90eb0 trans=HTRANS_NONSEQ resp=HRESP_OKAY delay=0
# UVM_INFO ../tb/agent_apb/apb_agent_pkg.sv(123) @ 735000: uvm_test_top.env.apb_agnt.mon [APB_MON] Captured: TXN: AHB_WRITE addr=0x00000058 data=0xccc90eb0 trans=HTRANS_NONSEQ resp=HRESP_OKAY delay=0
# [TOP MON] t=735000 psel=1 penable=1 paddr=0x00000058 pwdata=0xccc90eb0
# UVM_INFO ../tb/env/bridge_env_pkg.sv(85) @ 735000: uvm_test_top.env.scoreboard [SBOARD] [PASS] AHB_WRITE addr=0x00000058 data=0xccc90eb0
# [TOP MON] t=845000 psel=1 penable=0 paddr=0x00000010 pwdata=0x71d1555c
# UVM_INFO ../tb/agent_ahb/ahb_agent_pkg.sv(251) @ 846000: uvm_test_top.env.ahb_agnt.mon [AHB_MON] Captured: TXN: AHB_WRITE addr=0x00000010 data=0x71d1555c trans=HTRANS_NONSEQ resp=HRESP_OKAY delay=0
# UVM_INFO ../tb/agent_apb/apb_agent_pkg.sv(123) @ 855000: uvm_test_top.env.apb_agnt.mon [APB_MON] Captured: TXN: AHB_WRITE addr=0x00000010 data=0x71d1555c trans=HTRANS_NONSEQ resp=HRESP_OKAY delay=0
# [TOP MON] t=855000 psel=1 penable=1 paddr=0x00000010 pwdata=0x71d1555c
# UVM_INFO ../tb/env/bridge_env_pkg.sv(85) @ 855000: uvm_test_top.env.scoreboard [SBOARD] [PASS] AHB_WRITE addr=0x00000010 data=0x71d1555c
# [TOP MON] t=935000 psel=1 penable=0 paddr=0x000000ec pwdata=0x7d313ddf
# UVM_INFO ../tb/agent_ahb/ahb_agent_pkg.sv(251) @ 936000: uvm_test_top.env.ahb_agnt.mon [AHB_MON] Captured: TXN: AHB_WRITE addr=0x000000ec data=0x7d313ddf trans=HTRANS_NONSEQ resp=HRESP_OKAY delay=0
# UVM_INFO ../tb/agent_apb/apb_agent_pkg.sv(123) @ 945000: uvm_test_top.env.apb_agnt.mon [APB_MON] Captured: TXN: AHB_WRITE addr=0x000000ec data=0x7d313ddf trans=HTRANS_NONSEQ resp=HRESP_OKAY delay=0
# [TOP MON] t=945000 psel=1 penable=1 paddr=0x000000ec pwdata=0x7d313ddf
# UVM_INFO ../tb/env/bridge_env_pkg.sv(85) @ 945000: uvm_test_top.env.scoreboard [SBOARD] [PASS] AHB_WRITE addr=0x000000ec data=0x7d313ddf
# [TOP MON] t=985000 psel=1 penable=0 paddr=0x00000074 pwdata=0x9c4ad428
# UVM_INFO ../tb/agent_ahb/ahb_agent_pkg.sv(251) @ 986000: uvm_test_top.env.ahb_agnt.mon [AHB_MON] Captured: TXN: AHB_WRITE addr=0x00000074 data=0x9c4ad428 trans=HTRANS_NONSEQ resp=HRESP_OKAY delay=0
# UVM_INFO ../tb/agent_apb/apb_agent_pkg.sv(123) @ 995000: uvm_test_top.env.apb_agnt.mon [APB_MON] Captured: TXN: AHB_WRITE addr=0x00000074 data=0x9c4ad428 trans=HTRANS_NONSEQ resp=HRESP_OKAY delay=0
# [TOP MON] t=995000 psel=1 penable=1 paddr=0x00000074 pwdata=0x9c4ad428
# UVM_INFO ../tb/env/bridge_env_pkg.sv(85) @ 995000: uvm_test_top.env.scoreboard [SBOARD] [PASS] AHB_WRITE addr=0x00000074 data=0x9c4ad428
# [TOP MON] t=1125000 psel=1 penable=0 paddr=0x00000060 pwdata=0x08e8bb16
# UVM_INFO ../tb/agent_ahb/ahb_agent_pkg.sv(251) @ 1126000: uvm_test_top.env.ahb_agnt.mon [AHB_MON] Captured: TXN: AHB_WRITE addr=0x00000060 data=0x08e8bb16 trans=HTRANS_NONSEQ resp=HRESP_OKAY delay=0
# UVM_INFO ../tb/agent_apb/apb_agent_pkg.sv(123) @ 1135000: uvm_test_top.env.apb_agnt.mon [APB_MON] Captured: TXN: AHB_WRITE addr=0x00000060 data=0x08e8bb16 trans=HTRANS_NONSEQ resp=HRESP_OKAY delay=0
# [TOP MON] t=1135000 psel=1 penable=1 paddr=0x00000060 pwdata=0x08e8bb16
# UVM_INFO ../tb/env/bridge_env_pkg.sv(85) @ 1135000: uvm_test_top.env.scoreboard [SBOARD] [PASS] AHB_WRITE addr=0x00000060 data=0x08e8bb16
# [TOP MON] t=1175000 psel=1 penable=0 paddr=0x00000050 pwdata=0xe2e4c8da
# UVM_INFO ../tb/agent_ahb/ahb_agent_pkg.sv(251) @ 1176000: uvm_test_top.env.ahb_agnt.mon [AHB_MON] Captured: TXN: AHB_WRITE addr=0x00000050 data=0xe2e4c8da trans=HTRANS_NONSEQ resp=HRESP_OKAY delay=0
# UVM_INFO ../tb/agent_apb/apb_agent_pkg.sv(123) @ 1185000: uvm_test_top.env.apb_agnt.mon [APB_MON] Captured: TXN: AHB_WRITE addr=0x00000050 data=0xe2e4c8da trans=HTRANS_NONSEQ resp=HRESP_OKAY delay=0
# [TOP MON] t=1185000 psel=1 penable=1 paddr=0x00000050 pwdata=0xe2e4c8da
# UVM_INFO ../tb/env/bridge_env_pkg.sv(85) @ 1185000: uvm_test_top.env.scoreboard [SBOARD] [PASS] AHB_WRITE addr=0x00000050 data=0xe2e4c8da
# [TOP MON] t=1315000 psel=1 penable=0 paddr=0x000000c0 pwdata=0xf054afbb
# UVM_INFO ../tb/agent_ahb/ahb_agent_pkg.sv(251) @ 1316000: uvm_test_top.env.ahb_agnt.mon [AHB_MON] Captured: TXN: AHB_WRITE addr=0x000000c0 data=0xf054afbb trans=HTRANS_NONSEQ resp=HRESP_OKAY delay=0
# UVM_INFO ../tb/agent_apb/apb_agent_pkg.sv(123) @ 1325000: uvm_test_top.env.apb_agnt.mon [APB_MON] Captured: TXN: AHB_WRITE addr=0x000000c0 data=0xf054afbb trans=HTRANS_NONSEQ resp=HRESP_OKAY delay=0
# [TOP MON] t=1325000 psel=1 penable=1 paddr=0x000000c0 pwdata=0xf054afbb
# UVM_INFO ../tb/env/bridge_env_pkg.sv(85) @ 1325000: uvm_test_top.env.scoreboard [SBOARD] [PASS] AHB_WRITE addr=0x000000c0 data=0xf054afbb
# [TOP MON] t=1385000 psel=1 penable=0 paddr=0x000000bc pwdata=0x4a3c5f54
# UVM_INFO ../tb/agent_ahb/ahb_agent_pkg.sv(251) @ 1386000: uvm_test_top.env.ahb_agnt.mon [AHB_MON] Captured: TXN: AHB_WRITE addr=0x000000bc data=0x4a3c5f54 trans=HTRANS_NONSEQ resp=HRESP_OKAY delay=0
# UVM_INFO ../tb/agent_apb/apb_agent_pkg.sv(123) @ 1395000: uvm_test_top.env.apb_agnt.mon [APB_MON] Captured: TXN: AHB_WRITE addr=0x000000bc data=0x4a3c5f54 trans=HTRANS_NONSEQ resp=HRESP_OKAY delay=0
# [TOP MON] t=1395000 psel=1 penable=1 paddr=0x000000bc pwdata=0x4a3c5f54
# UVM_INFO ../tb/env/bridge_env_pkg.sv(85) @ 1395000: uvm_test_top.env.scoreboard [SBOARD] [PASS] AHB_WRITE addr=0x000000bc data=0x4a3c5f54
# [TOP MON] t=1515000 psel=1 penable=0 paddr=0x000000cc pwdata=0x00000000
# UVM_INFO ../tb/agent_ahb/ahb_agent_pkg.sv(251) @ 1516000: uvm_test_top.env.ahb_agnt.mon [AHB_MON] Captured: TXN: AHB_READ addr=0x000000cc data=0xa5a50033 trans=HTRANS_NONSEQ resp=HRESP_OKAY delay=0
# UVM_INFO ../tb/agent_apb/apb_agent_pkg.sv(123) @ 1525000: uvm_test_top.env.apb_agnt.mon [APB_MON] Captured: TXN: AHB_READ addr=0x000000cc data=0xa5a50033 trans=HTRANS_NONSEQ resp=HRESP_OKAY delay=0
# [TOP MON] t=1525000 psel=1 penable=1 paddr=0x000000cc pwdata=0x00000000
# UVM_INFO ../tb/env/bridge_env_pkg.sv(85) @ 1525000: uvm_test_top.env.scoreboard [SBOARD] [PASS] AHB_READ addr=0x000000cc data=0xa5a50033
# [TOP MON] t=1585000 psel=1 penable=0 paddr=0x0000005c pwdata=0x00000000
# UVM_INFO ../tb/agent_ahb/ahb_agent_pkg.sv(251) @ 1586000: uvm_test_top.env.ahb_agnt.mon [AHB_MON] Captured: TXN: AHB_READ addr=0x0000005c data=0xa5a50017 trans=HTRANS_NONSEQ resp=HRESP_OKAY delay=0
# UVM_INFO ../tb/agent_apb/apb_agent_pkg.sv(123) @ 1595000: uvm_test_top.env.apb_agnt.mon [APB_MON] Captured: TXN: AHB_READ addr=0x0000005c data=0xa5a50017 trans=HTRANS_NONSEQ resp=HRESP_OKAY delay=0
# [TOP MON] t=1595000 psel=1 penable=1 paddr=0x0000005c pwdata=0x00000000
# UVM_INFO ../tb/env/bridge_env_pkg.sv(85) @ 1595000: uvm_test_top.env.scoreboard [SBOARD] [PASS] AHB_READ addr=0x0000005c data=0xa5a50017
# [TOP MON] t=1625000 psel=1 penable=0 paddr=0x00000008 pwdata=0x00000000
# UVM_INFO ../tb/agent_ahb/ahb_agent_pkg.sv(251) @ 1626000: uvm_test_top.env.ahb_agnt.mon [AHB_MON] Captured: TXN: AHB_READ addr=0x00000008 data=0xa5a50002 trans=HTRANS_NONSEQ resp=HRESP_OKAY delay=0
# UVM_INFO ../tb/agent_apb/apb_agent_pkg.sv(123) @ 1635000: uvm_test_top.env.apb_agnt.mon [APB_MON] Captured: TXN: AHB_READ addr=0x00000008 data=0xa5a50002 trans=HTRANS_NONSEQ resp=HRESP_OKAY delay=0
# [TOP MON] t=1635000 psel=1 penable=1 paddr=0x00000008 pwdata=0x00000000
# UVM_INFO ../tb/env/bridge_env_pkg.sv(85) @ 1635000: uvm_test_top.env.scoreboard [SBOARD] [PASS] AHB_READ addr=0x00000008 data=0xa5a50002
# [TOP MON] t=1695000 psel=1 penable=0 paddr=0x000000dc pwdata=0x5425ec59
# UVM_INFO ../tb/agent_ahb/ahb_agent_pkg.sv(251) @ 1696000: uvm_test_top.env.ahb_agnt.mon [AHB_MON] Captured: TXN: AHB_WRITE addr=0x000000dc data=0x5425ec59 trans=HTRANS_NONSEQ resp=HRESP_OKAY delay=0
# UVM_INFO ../tb/agent_apb/apb_agent_pkg.sv(123) @ 1705000: uvm_test_top.env.apb_agnt.mon [APB_MON] Captured: TXN: AHB_WRITE addr=0x000000dc data=0x5425ec59 trans=HTRANS_NONSEQ resp=HRESP_OKAY delay=0
# [TOP MON] t=1705000 psel=1 penable=1 paddr=0x000000dc pwdata=0x5425ec59
# UVM_INFO ../tb/env/bridge_env_pkg.sv(85) @ 1705000: uvm_test_top.env.scoreboard [SBOARD] [PASS] AHB_WRITE addr=0x000000dc data=0x5425ec59
# [TOP MON] t=1745000 psel=1 penable=0 paddr=0x0000001c pwdata=0x00000000
# UVM_INFO ../tb/agent_ahb/ahb_agent_pkg.sv(251) @ 1746000: uvm_test_top.env.ahb_agnt.mon [AHB_MON] Captured: TXN: AHB_READ addr=0x0000001c data=0x55555555 trans=HTRANS_NONSEQ resp=HRESP_OKAY delay=0
# UVM_INFO ../tb/agent_apb/apb_agent_pkg.sv(123) @ 1755000: uvm_test_top.env.apb_agnt.mon [APB_MON] Captured: TXN: AHB_READ addr=0x0000001c data=0x55555555 trans=HTRANS_NONSEQ resp=HRESP_OKAY delay=0
# [TOP MON] t=1755000 psel=1 penable=1 paddr=0x0000001c pwdata=0x00000000
# UVM_INFO ../tb/env/bridge_env_pkg.sv(85) @ 1755000: uvm_test_top.env.scoreboard [SBOARD] [PASS] AHB_READ addr=0x0000001c data=0x55555555
# [TOP MON] t=1865000 psel=1 penable=0 paddr=0x00000020 pwdata=0xd8092d1a
# UVM_INFO ../tb/agent_ahb/ahb_agent_pkg.sv(251) @ 1866000: uvm_test_top.env.ahb_agnt.mon [AHB_MON] Captured: TXN: AHB_WRITE addr=0x00000020 data=0xd8092d1a trans=HTRANS_NONSEQ resp=HRESP_OKAY delay=0
# UVM_INFO ../tb/agent_apb/apb_agent_pkg.sv(123) @ 1875000: uvm_test_top.env.apb_agnt.mon [APB_MON] Captured: TXN: AHB_WRITE addr=0x00000020 data=0xd8092d1a trans=HTRANS_NONSEQ resp=HRESP_OKAY delay=0
# [TOP MON] t=1875000 psel=1 penable=1 paddr=0x00000020 pwdata=0xd8092d1a
# UVM_INFO ../tb/env/bridge_env_pkg.sv(85) @ 1875000: uvm_test_top.env.scoreboard [SBOARD] [PASS] AHB_WRITE addr=0x00000020 data=0xd8092d1a
# [TOP MON] t=1925000 psel=1 penable=0 paddr=0x00000078 pwdata=0x00000000
# UVM_INFO ../tb/agent_ahb/ahb_agent_pkg.sv(251) @ 1926000: uvm_test_top.env.ahb_agnt.mon [AHB_MON] Captured: TXN: AHB_READ addr=0x00000078 data=0xa5a5001e trans=HTRANS_NONSEQ resp=HRESP_OKAY delay=0
# UVM_INFO ../tb/agent_apb/apb_agent_pkg.sv(123) @ 1935000: uvm_test_top.env.apb_agnt.mon [APB_MON] Captured: TXN: AHB_READ addr=0x00000078 data=0xa5a5001e trans=HTRANS_NONSEQ resp=HRESP_OKAY delay=0
# [TOP MON] t=1935000 psel=1 penable=1 paddr=0x00000078 pwdata=0x00000000
# UVM_INFO ../tb/env/bridge_env_pkg.sv(85) @ 1935000: uvm_test_top.env.scoreboard [SBOARD] [PASS] AHB_READ addr=0x00000078 data=0xa5a5001e
# [TOP MON] t=1995000 psel=1 penable=0 paddr=0x0000006c pwdata=0xef9a8ac9
# UVM_INFO ../tb/agent_ahb/ahb_agent_pkg.sv(251) @ 1996000: uvm_test_top.env.ahb_agnt.mon [AHB_MON] Captured: TXN: AHB_WRITE addr=0x0000006c data=0xef9a8ac9 trans=HTRANS_NONSEQ resp=HRESP_OKAY delay=0
# UVM_INFO ../tb/agent_apb/apb_agent_pkg.sv(123) @ 2005000: uvm_test_top.env.apb_agnt.mon [APB_MON] Captured: TXN: AHB_WRITE addr=0x0000006c data=0xef9a8ac9 trans=HTRANS_NONSEQ resp=HRESP_OKAY delay=0
# [TOP MON] t=2005000 psel=1 penable=1 paddr=0x0000006c pwdata=0xef9a8ac9
# UVM_INFO ../tb/env/bridge_env_pkg.sv(85) @ 2005000: uvm_test_top.env.scoreboard [SBOARD] [PASS] AHB_WRITE addr=0x0000006c data=0xef9a8ac9
# [TOP MON] t=2035000 psel=1 penable=0 paddr=0x000000a8 pwdata=0x00000000
# UVM_INFO ../tb/agent_ahb/ahb_agent_pkg.sv(251) @ 2036000: uvm_test_top.env.ahb_agnt.mon [AHB_MON] Captured: TXN: AHB_READ addr=0x000000a8 data=0xa5a5002a trans=HTRANS_NONSEQ resp=HRESP_OKAY delay=0
# UVM_INFO ../tb/agent_apb/apb_agent_pkg.sv(123) @ 2045000: uvm_test_top.env.apb_agnt.mon [APB_MON] Captured: TXN: AHB_READ addr=0x000000a8 data=0xa5a5002a trans=HTRANS_NONSEQ resp=HRESP_OKAY delay=0
# [TOP MON] t=2045000 psel=1 penable=1 paddr=0x000000a8 pwdata=0x00000000
# UVM_INFO ../tb/env/bridge_env_pkg.sv(85) @ 2045000: uvm_test_top.env.scoreboard [SBOARD] [PASS] AHB_READ addr=0x000000a8 data=0xa5a5002a
# [TOP MON] t=2185000 psel=1 penable=0 paddr=0x00000020 pwdata=0x97ab3fe5
# UVM_INFO ../tb/agent_ahb/ahb_agent_pkg.sv(251) @ 2186000: uvm_test_top.env.ahb_agnt.mon [AHB_MON] Captured: TXN: AHB_WRITE addr=0x00000020 data=0x97ab3fe5 trans=HTRANS_NONSEQ resp=HRESP_OKAY delay=0
# UVM_INFO ../tb/agent_apb/apb_agent_pkg.sv(123) @ 2195000: uvm_test_top.env.apb_agnt.mon [APB_MON] Captured: TXN: AHB_WRITE addr=0x00000020 data=0x97ab3fe5 trans=HTRANS_NONSEQ resp=HRESP_OKAY delay=0
# [TOP MON] t=2195000 psel=1 penable=1 paddr=0x00000020 pwdata=0x97ab3fe5
# UVM_INFO ../tb/env/bridge_env_pkg.sv(85) @ 2195000: uvm_test_top.env.scoreboard [SBOARD] [PASS] AHB_WRITE addr=0x00000020 data=0x97ab3fe5
# [TOP MON] t=2335000 psel=1 penable=0 paddr=0x000000e8 pwdata=0xa4231965
# UVM_INFO ../tb/agent_ahb/ahb_agent_pkg.sv(251) @ 2336000: uvm_test_top.env.ahb_agnt.mon [AHB_MON] Captured: TXN: AHB_WRITE addr=0x000000e8 data=0xa4231965 trans=HTRANS_NONSEQ resp=HRESP_OKAY delay=0
# UVM_INFO ../tb/agent_apb/apb_agent_pkg.sv(123) @ 2345000: uvm_test_top.env.apb_agnt.mon [APB_MON] Captured: TXN: AHB_WRITE addr=0x000000e8 data=0xa4231965 trans=HTRANS_NONSEQ resp=HRESP_OKAY delay=0
# [TOP MON] t=2345000 psel=1 penable=1 paddr=0x000000e8 pwdata=0xa4231965
# UVM_INFO ../tb/env/bridge_env_pkg.sv(85) @ 2345000: uvm_test_top.env.scoreboard [SBOARD] [PASS] AHB_WRITE addr=0x000000e8 data=0xa4231965
# [TOP MON] t=2375000 psel=1 penable=0 paddr=0x00000008 pwdata=0x00000000
# UVM_INFO ../tb/agent_ahb/ahb_agent_pkg.sv(251) @ 2376000: uvm_test_top.env.ahb_agnt.mon [AHB_MON] Captured: TXN: AHB_READ addr=0x00000008 data=0xa5a50002 trans=HTRANS_NONSEQ resp=HRESP_OKAY delay=0
# UVM_INFO ../tb/agent_apb/apb_agent_pkg.sv(123) @ 2385000: uvm_test_top.env.apb_agnt.mon [APB_MON] Captured: TXN: AHB_READ addr=0x00000008 data=0xa5a50002 trans=HTRANS_NONSEQ resp=HRESP_OKAY delay=0
# [TOP MON] t=2385000 psel=1 penable=1 paddr=0x00000008 pwdata=0x00000000
# UVM_INFO ../tb/env/bridge_env_pkg.sv(85) @ 2385000: uvm_test_top.env.scoreboard [SBOARD] [PASS] AHB_READ addr=0x00000008 data=0xa5a50002
# [TOP MON] t=2475000 psel=1 penable=0 paddr=0x000000c0 pwdata=0x00000000
# UVM_INFO ../tb/agent_ahb/ahb_agent_pkg.sv(251) @ 2476000: uvm_test_top.env.ahb_agnt.mon [AHB_MON] Captured: TXN: AHB_READ addr=0x000000c0 data=0xf054afbb trans=HTRANS_NONSEQ resp=HRESP_OKAY delay=0
# UVM_INFO ../tb/agent_apb/apb_agent_pkg.sv(123) @ 2485000: uvm_test_top.env.apb_agnt.mon [APB_MON] Captured: TXN: AHB_READ addr=0x000000c0 data=0xf054afbb trans=HTRANS_NONSEQ resp=HRESP_OKAY delay=0
# [TOP MON] t=2485000 psel=1 penable=1 paddr=0x000000c0 pwdata=0x00000000
# UVM_INFO ../tb/env/bridge_env_pkg.sv(85) @ 2485000: uvm_test_top.env.scoreboard [SBOARD] [PASS] AHB_READ addr=0x000000c0 data=0xf054afbb
# [TOP MON] t=2515000 psel=1 penable=0 paddr=0x00000080 pwdata=0x00000000
# UVM_INFO ../tb/agent_ahb/ahb_agent_pkg.sv(251) @ 2516000: uvm_test_top.env.ahb_agnt.mon [AHB_MON] Captured: TXN: AHB_READ addr=0x00000080 data=0xa5a50020 trans=HTRANS_NONSEQ resp=HRESP_OKAY delay=0
# UVM_INFO ../tb/agent_apb/apb_agent_pkg.sv(123) @ 2525000: uvm_test_top.env.apb_agnt.mon [APB_MON] Captured: TXN: AHB_READ addr=0x00000080 data=0xa5a50020 trans=HTRANS_NONSEQ resp=HRESP_OKAY delay=0
# [TOP MON] t=2525000 psel=1 penable=1 paddr=0x00000080 pwdata=0x00000000
# UVM_INFO ../tb/env/bridge_env_pkg.sv(85) @ 2525000: uvm_test_top.env.scoreboard [SBOARD] [PASS] AHB_READ addr=0x00000080 data=0xa5a50020
# [TOP MON] t=2575000 psel=1 penable=0 paddr=0x000000c0 pwdata=0x6811e142
# UVM_INFO ../tb/agent_ahb/ahb_agent_pkg.sv(251) @ 2576000: uvm_test_top.env.ahb_agnt.mon [AHB_MON] Captured: TXN: AHB_WRITE addr=0x000000c0 data=0x6811e142 trans=HTRANS_NONSEQ resp=HRESP_OKAY delay=0
# UVM_INFO ../tb/agent_apb/apb_agent_pkg.sv(123) @ 2585000: uvm_test_top.env.apb_agnt.mon [APB_MON] Captured: TXN: AHB_WRITE addr=0x000000c0 data=0x6811e142 trans=HTRANS_NONSEQ resp=HRESP_OKAY delay=0
# [TOP MON] t=2585000 psel=1 penable=1 paddr=0x000000c0 pwdata=0x6811e142
# UVM_INFO ../tb/env/bridge_env_pkg.sv(85) @ 2585000: uvm_test_top.env.scoreboard [SBOARD] [PASS] AHB_WRITE addr=0x000000c0 data=0x6811e142
# [TOP MON] t=2675000 psel=1 penable=0 paddr=0x0000002c pwdata=0x66b484a6
# UVM_INFO ../tb/agent_ahb/ahb_agent_pkg.sv(251) @ 2676000: uvm_test_top.env.ahb_agnt.mon [AHB_MON] Captured: TXN: AHB_WRITE addr=0x0000002c data=0x66b484a6 trans=HTRANS_NONSEQ resp=HRESP_OKAY delay=0
# UVM_INFO ../tb/agent_apb/apb_agent_pkg.sv(123) @ 2685000: uvm_test_top.env.apb_agnt.mon [APB_MON] Captured: TXN: AHB_WRITE addr=0x0000002c data=0x66b484a6 trans=HTRANS_NONSEQ resp=HRESP_OKAY delay=0
# [TOP MON] t=2685000 psel=1 penable=1 paddr=0x0000002c pwdata=0x66b484a6
# UVM_INFO ../tb/env/bridge_env_pkg.sv(85) @ 2685000: uvm_test_top.env.scoreboard [SBOARD] [PASS] AHB_WRITE addr=0x0000002c data=0x66b484a6
# [TOP MON] t=2825000 psel=1 penable=0 paddr=0x00000090 pwdata=0x15a417c1
# UVM_INFO ../tb/agent_ahb/ahb_agent_pkg.sv(251) @ 2826000: uvm_test_top.env.ahb_agnt.mon [AHB_MON] Captured: TXN: AHB_WRITE addr=0x00000090 data=0x15a417c1 trans=HTRANS_NONSEQ resp=HRESP_OKAY delay=0
# UVM_INFO ../tb/agent_apb/apb_agent_pkg.sv(123) @ 2835000: uvm_test_top.env.apb_agnt.mon [APB_MON] Captured: TXN: AHB_WRITE addr=0x00000090 data=0x15a417c1 trans=HTRANS_NONSEQ resp=HRESP_OKAY delay=0
# [TOP MON] t=2835000 psel=1 penable=1 paddr=0x00000090 pwdata=0x15a417c1
# UVM_INFO ../tb/env/bridge_env_pkg.sv(85) @ 2835000: uvm_test_top.env.scoreboard [SBOARD] [PASS] AHB_WRITE addr=0x00000090 data=0x15a417c1
# [TOP MON] t=2955000 psel=1 penable=0 paddr=0x0000005c pwdata=0x458e1554
# UVM_INFO ../tb/agent_ahb/ahb_agent_pkg.sv(251) @ 2956000: uvm_test_top.env.ahb_agnt.mon [AHB_MON] Captured: TXN: AHB_WRITE addr=0x0000005c data=0x458e1554 trans=HTRANS_NONSEQ resp=HRESP_OKAY delay=0
# UVM_INFO ../tb/agent_apb/apb_agent_pkg.sv(123) @ 2965000: uvm_test_top.env.apb_agnt.mon [APB_MON] Captured: TXN: AHB_WRITE addr=0x0000005c data=0x458e1554 trans=HTRANS_NONSEQ resp=HRESP_OKAY delay=0
# [TOP MON] t=2965000 psel=1 penable=1 paddr=0x0000005c pwdata=0x458e1554
# UVM_INFO ../tb/env/bridge_env_pkg.sv(85) @ 2965000: uvm_test_top.env.scoreboard [SBOARD] [PASS] AHB_WRITE addr=0x0000005c data=0x458e1554
# [TOP MON] t=3025000 psel=1 penable=0 paddr=0x000000c0 pwdata=0x00000000
# UVM_INFO ../tb/agent_ahb/ahb_agent_pkg.sv(251) @ 3026000: uvm_test_top.env.ahb_agnt.mon [AHB_MON] Captured: TXN: AHB_READ addr=0x000000c0 data=0x6811e142 trans=HTRANS_NONSEQ resp=HRESP_OKAY delay=0
# UVM_INFO ../tb/agent_apb/apb_agent_pkg.sv(123) @ 3035000: uvm_test_top.env.apb_agnt.mon [APB_MON] Captured: TXN: AHB_READ addr=0x000000c0 data=0x6811e142 trans=HTRANS_NONSEQ resp=HRESP_OKAY delay=0
# [TOP MON] t=3035000 psel=1 penable=1 paddr=0x000000c0 pwdata=0x00000000
# UVM_INFO ../tb/env/bridge_env_pkg.sv(85) @ 3035000: uvm_test_top.env.scoreboard [SBOARD] [PASS] AHB_READ addr=0x000000c0 data=0x6811e142
# [TOP MON] t=3125000 psel=1 penable=0 paddr=0x00000030 pwdata=0x474149bf
# UVM_INFO ../tb/agent_ahb/ahb_agent_pkg.sv(251) @ 3126000: uvm_test_top.env.ahb_agnt.mon [AHB_MON] Captured: TXN: AHB_WRITE addr=0x00000030 data=0x474149bf trans=HTRANS_NONSEQ resp=HRESP_OKAY delay=0
# UVM_INFO ../tb/agent_apb/apb_agent_pkg.sv(123) @ 3135000: uvm_test_top.env.apb_agnt.mon [APB_MON] Captured: TXN: AHB_WRITE addr=0x00000030 data=0x474149bf trans=HTRANS_NONSEQ resp=HRESP_OKAY delay=0
# [TOP MON] t=3135000 psel=1 penable=1 paddr=0x00000030 pwdata=0x474149bf
# UVM_INFO ../tb/env/bridge_env_pkg.sv(85) @ 3135000: uvm_test_top.env.scoreboard [SBOARD] [PASS] AHB_WRITE addr=0x00000030 data=0x474149bf
# [TOP MON] t=3255000 psel=1 penable=0 paddr=0x0000000c pwdata=0xe4c83089
# UVM_INFO ../tb/agent_ahb/ahb_agent_pkg.sv(251) @ 3256000: uvm_test_top.env.ahb_agnt.mon [AHB_MON] Captured: TXN: AHB_WRITE addr=0x0000000c data=0xe4c83089 trans=HTRANS_NONSEQ resp=HRESP_OKAY delay=0
# UVM_INFO ../tb/agent_apb/apb_agent_pkg.sv(123) @ 3265000: uvm_test_top.env.apb_agnt.mon [APB_MON] Captured: TXN: AHB_WRITE addr=0x0000000c data=0xe4c83089 trans=HTRANS_NONSEQ resp=HRESP_OKAY delay=0
# [TOP MON] t=3265000 psel=1 penable=1 paddr=0x0000000c pwdata=0xe4c83089
# UVM_INFO ../tb/env/bridge_env_pkg.sv(85) @ 3265000: uvm_test_top.env.scoreboard [SBOARD] [PASS] AHB_WRITE addr=0x0000000c data=0xe4c83089
# [TOP MON] t=3365000 psel=1 penable=0 paddr=0x000000d0 pwdata=0x00000000
# UVM_INFO ../tb/agent_ahb/ahb_agent_pkg.sv(251) @ 3366000: uvm_test_top.env.ahb_agnt.mon [AHB_MON] Captured: TXN: AHB_READ addr=0x000000d0 data=0xa5a50034 trans=HTRANS_NONSEQ resp=HRESP_OKAY delay=0
# UVM_INFO ../tb/agent_apb/apb_agent_pkg.sv(123) @ 3375000: uvm_test_top.env.apb_agnt.mon [APB_MON] Captured: TXN: AHB_READ addr=0x000000d0 data=0xa5a50034 trans=HTRANS_NONSEQ resp=HRESP_OKAY delay=0
# [TOP MON] t=3375000 psel=1 penable=1 paddr=0x000000d0 pwdata=0x00000000
# UVM_INFO ../tb/env/bridge_env_pkg.sv(85) @ 3375000: uvm_test_top.env.scoreboard [SBOARD] [PASS] AHB_READ addr=0x000000d0 data=0xa5a50034
# [TOP MON] t=3475000 psel=1 penable=0 paddr=0x00000014 pwdata=0x00000000
# UVM_INFO ../tb/agent_ahb/ahb_agent_pkg.sv(251) @ 3476000: uvm_test_top.env.ahb_agnt.mon [AHB_MON] Captured: TXN: AHB_READ addr=0x00000014 data=0xffffffff trans=HTRANS_NONSEQ resp=HRESP_OKAY delay=0
# UVM_INFO ../tb/agent_apb/apb_agent_pkg.sv(123) @ 3485000: uvm_test_top.env.apb_agnt.mon [APB_MON] Captured: TXN: AHB_READ addr=0x00000014 data=0xffffffff trans=HTRANS_NONSEQ resp=HRESP_OKAY delay=0
# [TOP MON] t=3485000 psel=1 penable=1 paddr=0x00000014 pwdata=0x00000000
# UVM_INFO ../tb/env/bridge_env_pkg.sv(85) @ 3485000: uvm_test_top.env.scoreboard [SBOARD] [PASS] AHB_READ addr=0x00000014 data=0xffffffff
# [TOP MON] t=3545000 psel=1 penable=0 paddr=0x00000004 pwdata=0x30d54d20
# UVM_INFO ../tb/agent_ahb/ahb_agent_pkg.sv(251) @ 3546000: uvm_test_top.env.ahb_agnt.mon [AHB_MON] Captured: TXN: AHB_WRITE addr=0x00000004 data=0x30d54d20 trans=HTRANS_NONSEQ resp=HRESP_OKAY delay=0
# UVM_INFO ../tb/agent_apb/apb_agent_pkg.sv(123) @ 3555000: uvm_test_top.env.apb_agnt.mon [APB_MON] Captured: TXN: AHB_WRITE addr=0x00000004 data=0x30d54d20 trans=HTRANS_NONSEQ resp=HRESP_OKAY delay=0
# [TOP MON] t=3555000 psel=1 penable=1 paddr=0x00000004 pwdata=0x30d54d20
# UVM_INFO ../tb/env/bridge_env_pkg.sv(85) @ 3555000: uvm_test_top.env.scoreboard [SBOARD] [PASS] AHB_WRITE addr=0x00000004 data=0x30d54d20
# [TOP MON] t=3675000 psel=1 penable=0 paddr=0x00000010 pwdata=0x00000000
# UVM_INFO ../tb/agent_ahb/ahb_agent_pkg.sv(251) @ 3676000: uvm_test_top.env.ahb_agnt.mon [AHB_MON] Captured: TXN: AHB_READ addr=0x00000010 data=0x71d1555c trans=HTRANS_NONSEQ resp=HRESP_OKAY delay=0
# UVM_INFO ../tb/agent_apb/apb_agent_pkg.sv(123) @ 3685000: uvm_test_top.env.apb_agnt.mon [APB_MON] Captured: TXN: AHB_READ addr=0x00000010 data=0x71d1555c trans=HTRANS_NONSEQ resp=HRESP_OKAY delay=0
# [TOP MON] t=3685000 psel=1 penable=1 paddr=0x00000010 pwdata=0x00000000
# UVM_INFO ../tb/env/bridge_env_pkg.sv(85) @ 3685000: uvm_test_top.env.scoreboard [SBOARD] [PASS] AHB_READ addr=0x00000010 data=0x71d1555c
# [TOP MON] t=3805000 psel=1 penable=0 paddr=0x00000090 pwdata=0x3497e143
# UVM_INFO ../tb/agent_ahb/ahb_agent_pkg.sv(251) @ 3806000: uvm_test_top.env.ahb_agnt.mon [AHB_MON] Captured: TXN: AHB_WRITE addr=0x00000090 data=0x3497e143 trans=HTRANS_NONSEQ resp=HRESP_OKAY delay=0
# UVM_INFO ../tb/agent_apb/apb_agent_pkg.sv(123) @ 3815000: uvm_test_top.env.apb_agnt.mon [APB_MON] Captured: TXN: AHB_WRITE addr=0x00000090 data=0x3497e143 trans=HTRANS_NONSEQ resp=HRESP_OKAY delay=0
# [TOP MON] t=3815000 psel=1 penable=1 paddr=0x00000090 pwdata=0x3497e143
# UVM_INFO ../tb/env/bridge_env_pkg.sv(85) @ 3815000: uvm_test_top.env.scoreboard [SBOARD] [PASS] AHB_WRITE addr=0x00000090 data=0x3497e143
# [TOP MON] t=3845000 psel=1 penable=0 paddr=0x00000098 pwdata=0x00000000
# UVM_INFO ../tb/agent_ahb/ahb_agent_pkg.sv(251) @ 3846000: uvm_test_top.env.ahb_agnt.mon [AHB_MON] Captured: TXN: AHB_READ addr=0x00000098 data=0xa5a50026 trans=HTRANS_NONSEQ resp=HRESP_OKAY delay=0
# UVM_INFO ../tb/agent_apb/apb_agent_pkg.sv(123) @ 3855000: uvm_test_top.env.apb_agnt.mon [APB_MON] Captured: TXN: AHB_READ addr=0x00000098 data=0xa5a50026 trans=HTRANS_NONSEQ resp=HRESP_OKAY delay=0
# [TOP MON] t=3855000 psel=1 penable=1 paddr=0x00000098 pwdata=0x00000000
# UVM_INFO ../tb/env/bridge_env_pkg.sv(85) @ 3855000: uvm_test_top.env.scoreboard [SBOARD] [PASS] AHB_READ addr=0x00000098 data=0xa5a50026
# [TOP MON] t=3965000 psel=1 penable=0 paddr=0x00000034 pwdata=0x2ded2287
# UVM_INFO ../tb/agent_ahb/ahb_agent_pkg.sv(251) @ 3966000: uvm_test_top.env.ahb_agnt.mon [AHB_MON] Captured: TXN: AHB_WRITE addr=0x00000034 data=0x2ded2287 trans=HTRANS_NONSEQ resp=HRESP_OKAY delay=0
# UVM_INFO ../tb/agent_apb/apb_agent_pkg.sv(123) @ 3975000: uvm_test_top.env.apb_agnt.mon [APB_MON] Captured: TXN: AHB_WRITE addr=0x00000034 data=0x2ded2287 trans=HTRANS_NONSEQ resp=HRESP_OKAY delay=0
# [TOP MON] t=3975000 psel=1 penable=1 paddr=0x00000034 pwdata=0x2ded2287
# UVM_INFO ../tb/env/bridge_env_pkg.sv(85) @ 3975000: uvm_test_top.env.scoreboard [SBOARD] [PASS] AHB_WRITE addr=0x00000034 data=0x2ded2287
# [TOP MON] t=4085000 psel=1 penable=0 paddr=0x0000005c pwdata=0x00000000
# UVM_INFO ../tb/agent_ahb/ahb_agent_pkg.sv(251) @ 4086000: uvm_test_top.env.ahb_agnt.mon [AHB_MON] Captured: TXN: AHB_READ addr=0x0000005c data=0x458e1554 trans=HTRANS_NONSEQ resp=HRESP_OKAY delay=0
# UVM_INFO ../tb/agent_apb/apb_agent_pkg.sv(123) @ 4095000: uvm_test_top.env.apb_agnt.mon [APB_MON] Captured: TXN: AHB_READ addr=0x0000005c data=0x458e1554 trans=HTRANS_NONSEQ resp=HRESP_OKAY delay=0
# [TOP MON] t=4095000 psel=1 penable=1 paddr=0x0000005c pwdata=0x00000000
# UVM_INFO ../tb/env/bridge_env_pkg.sv(85) @ 4095000: uvm_test_top.env.scoreboard [SBOARD] [PASS] AHB_READ addr=0x0000005c data=0x458e1554
# [TOP MON] t=4205000 psel=1 penable=0 paddr=0x000000d4 pwdata=0xff0bb5aa
# UVM_INFO ../tb/agent_ahb/ahb_agent_pkg.sv(251) @ 4206000: uvm_test_top.env.ahb_agnt.mon [AHB_MON] Captured: TXN: AHB_WRITE addr=0x000000d4 data=0xff0bb5aa trans=HTRANS_NONSEQ resp=HRESP_OKAY delay=0
# UVM_INFO ../tb/agent_apb/apb_agent_pkg.sv(123) @ 4215000: uvm_test_top.env.apb_agnt.mon [APB_MON] Captured: TXN: AHB_WRITE addr=0x000000d4 data=0xff0bb5aa trans=HTRANS_NONSEQ resp=HRESP_OKAY delay=0
# [TOP MON] t=4215000 psel=1 penable=1 paddr=0x000000d4 pwdata=0xff0bb5aa
# UVM_INFO ../tb/env/bridge_env_pkg.sv(85) @ 4215000: uvm_test_top.env.scoreboard [SBOARD] [PASS] AHB_WRITE addr=0x000000d4 data=0xff0bb5aa
# [TOP MON] t=4275000 psel=1 penable=0 paddr=0x000000b8 pwdata=0x00000000
# UVM_INFO ../tb/agent_ahb/ahb_agent_pkg.sv(251) @ 4276000: uvm_test_top.env.ahb_agnt.mon [AHB_MON] Captured: TXN: AHB_READ addr=0x000000b8 data=0xa5a5002e trans=HTRANS_NONSEQ resp=HRESP_OKAY delay=0
# UVM_INFO ../tb/agent_apb/apb_agent_pkg.sv(123) @ 4285000: uvm_test_top.env.apb_agnt.mon [APB_MON] Captured: TXN: AHB_READ addr=0x000000b8 data=0xa5a5002e trans=HTRANS_NONSEQ resp=HRESP_OKAY delay=0
# [TOP MON] t=4285000 psel=1 penable=1 paddr=0x000000b8 pwdata=0x00000000
# UVM_INFO ../tb/env/bridge_env_pkg.sv(85) @ 4285000: uvm_test_top.env.scoreboard [SBOARD] [PASS] AHB_READ addr=0x000000b8 data=0xa5a5002e
# [TOP MON] t=4315000 psel=1 penable=0 paddr=0x000000b0 pwdata=0x00000000
# UVM_INFO ../tb/agent_ahb/ahb_agent_pkg.sv(251) @ 4316000: uvm_test_top.env.ahb_agnt.mon [AHB_MON] Captured: TXN: AHB_READ addr=0x000000b0 data=0xa5a5002c trans=HTRANS_NONSEQ resp=HRESP_OKAY delay=0
# UVM_INFO ../tb/agent_apb/apb_agent_pkg.sv(123) @ 4325000: uvm_test_top.env.apb_agnt.mon [APB_MON] Captured: TXN: AHB_READ addr=0x000000b0 data=0xa5a5002c trans=HTRANS_NONSEQ resp=HRESP_OKAY delay=0
# [TOP MON] t=4325000 psel=1 penable=1 paddr=0x000000b0 pwdata=0x00000000
# UVM_INFO ../tb/env/bridge_env_pkg.sv(85) @ 4325000: uvm_test_top.env.scoreboard [SBOARD] [PASS] AHB_READ addr=0x000000b0 data=0xa5a5002c
# [TOP MON] t=4405000 psel=1 penable=0 paddr=0x00000028 pwdata=0x00000000
# UVM_INFO ../tb/agent_ahb/ahb_agent_pkg.sv(251) @ 4406000: uvm_test_top.env.ahb_agnt.mon [AHB_MON] Captured: TXN: AHB_READ addr=0x00000028 data=0xa5a5000a trans=HTRANS_NONSEQ resp=HRESP_OKAY delay=0
# UVM_INFO ../tb/agent_apb/apb_agent_pkg.sv(123) @ 4415000: uvm_test_top.env.apb_agnt.mon [APB_MON] Captured: TXN: AHB_READ addr=0x00000028 data=0xa5a5000a trans=HTRANS_NONSEQ resp=HRESP_OKAY delay=0
# [TOP MON] t=4415000 psel=1 penable=1 paddr=0x00000028 pwdata=0x00000000
# UVM_INFO ../tb/env/bridge_env_pkg.sv(85) @ 4415000: uvm_test_top.env.scoreboard [SBOARD] [PASS] AHB_READ addr=0x00000028 data=0xa5a5000a
# [TOP MON] t=4525000 psel=1 penable=0 paddr=0x00000040 pwdata=0x89714b86
# UVM_INFO ../tb/agent_ahb/ahb_agent_pkg.sv(251) @ 4526000: uvm_test_top.env.ahb_agnt.mon [AHB_MON] Captured: TXN: AHB_WRITE addr=0x00000040 data=0x89714b86 trans=HTRANS_NONSEQ resp=HRESP_OKAY delay=0
# UVM_INFO ../tb/agent_apb/apb_agent_pkg.sv(123) @ 4535000: uvm_test_top.env.apb_agnt.mon [APB_MON] Captured: TXN: AHB_WRITE addr=0x00000040 data=0x89714b86 trans=HTRANS_NONSEQ resp=HRESP_OKAY delay=0
# [TOP MON] t=4535000 psel=1 penable=1 paddr=0x00000040 pwdata=0x89714b86
# UVM_INFO ../tb/env/bridge_env_pkg.sv(85) @ 4535000: uvm_test_top.env.scoreboard [SBOARD] [PASS] AHB_WRITE addr=0x00000040 data=0x89714b86
# [TOP MON] t=4565000 psel=1 penable=0 paddr=0x000000a8 pwdata=0x00000000
# UVM_INFO ../tb/agent_ahb/ahb_agent_pkg.sv(251) @ 4566000: uvm_test_top.env.ahb_agnt.mon [AHB_MON] Captured: TXN: AHB_READ addr=0x000000a8 data=0xa5a5002a trans=HTRANS_NONSEQ resp=HRESP_OKAY delay=0
# UVM_INFO ../tb/agent_apb/apb_agent_pkg.sv(123) @ 4575000: uvm_test_top.env.apb_agnt.mon [APB_MON] Captured: TXN: AHB_READ addr=0x000000a8 data=0xa5a5002a trans=HTRANS_NONSEQ resp=HRESP_OKAY delay=0
# [TOP MON] t=4575000 psel=1 penable=1 paddr=0x000000a8 pwdata=0x00000000
# UVM_INFO ../tb/env/bridge_env_pkg.sv(85) @ 4575000: uvm_test_top.env.scoreboard [SBOARD] [PASS] AHB_READ addr=0x000000a8 data=0xa5a5002a
# [TOP MON] t=4635000 psel=1 penable=0 paddr=0x00000090 pwdata=0xf767631f
# UVM_INFO ../tb/agent_ahb/ahb_agent_pkg.sv(251) @ 4636000: uvm_test_top.env.ahb_agnt.mon [AHB_MON] Captured: TXN: AHB_WRITE addr=0x00000090 data=0xf767631f trans=HTRANS_NONSEQ resp=HRESP_OKAY delay=0
# UVM_INFO ../tb/agent_apb/apb_agent_pkg.sv(123) @ 4645000: uvm_test_top.env.apb_agnt.mon [APB_MON] Captured: TXN: AHB_WRITE addr=0x00000090 data=0xf767631f trans=HTRANS_NONSEQ resp=HRESP_OKAY delay=0
# [TOP MON] t=4645000 psel=1 penable=1 paddr=0x00000090 pwdata=0xf767631f
# UVM_INFO ../tb/env/bridge_env_pkg.sv(85) @ 4645000: uvm_test_top.env.scoreboard [SBOARD] [PASS] AHB_WRITE addr=0x00000090 data=0xf767631f
# [TOP MON] t=4765000 psel=1 penable=0 paddr=0x0000008c pwdata=0x00000000
# UVM_INFO ../tb/agent_ahb/ahb_agent_pkg.sv(251) @ 4766000: uvm_test_top.env.ahb_agnt.mon [AHB_MON] Captured: TXN: AHB_READ addr=0x0000008c data=0xa5a50023 trans=HTRANS_NONSEQ resp=HRESP_OKAY delay=0
# UVM_INFO ../tb/agent_apb/apb_agent_pkg.sv(123) @ 4775000: uvm_test_top.env.apb_agnt.mon [APB_MON] Captured: TXN: AHB_READ addr=0x0000008c data=0xa5a50023 trans=HTRANS_NONSEQ resp=HRESP_OKAY delay=0
# [TOP MON] t=4775000 psel=1 penable=1 paddr=0x0000008c pwdata=0x00000000
# UVM_INFO ../tb/env/bridge_env_pkg.sv(85) @ 4775000: uvm_test_top.env.scoreboard [SBOARD] [PASS] AHB_READ addr=0x0000008c data=0xa5a50023
# [TOP MON] t=4845000 psel=1 penable=0 paddr=0x000000c8 pwdata=0x00000000
# UVM_INFO ../tb/agent_ahb/ahb_agent_pkg.sv(251) @ 4846000: uvm_test_top.env.ahb_agnt.mon [AHB_MON] Captured: TXN: AHB_READ addr=0x000000c8 data=0xa5a50032 trans=HTRANS_NONSEQ resp=HRESP_OKAY delay=0
# UVM_INFO ../tb/agent_apb/apb_agent_pkg.sv(123) @ 4855000: uvm_test_top.env.apb_agnt.mon [APB_MON] Captured: TXN: AHB_READ addr=0x000000c8 data=0xa5a50032 trans=HTRANS_NONSEQ resp=HRESP_OKAY delay=0
# [TOP MON] t=4855000 psel=1 penable=1 paddr=0x000000c8 pwdata=0x00000000
# UVM_INFO ../tb/env/bridge_env_pkg.sv(85) @ 4855000: uvm_test_top.env.scoreboard [SBOARD] [PASS] AHB_READ addr=0x000000c8 data=0xa5a50032
# [TOP MON] t=4895000 psel=1 penable=0 paddr=0x00000028 pwdata=0x00000000
# UVM_INFO ../tb/agent_ahb/ahb_agent_pkg.sv(251) @ 4896000: uvm_test_top.env.ahb_agnt.mon [AHB_MON] Captured: TXN: AHB_READ addr=0x00000028 data=0xa5a5000a trans=HTRANS_NONSEQ resp=HRESP_OKAY delay=0
# UVM_INFO ../tb/agent_apb/apb_agent_pkg.sv(123) @ 4905000: uvm_test_top.env.apb_agnt.mon [APB_MON] Captured: TXN: AHB_READ addr=0x00000028 data=0xa5a5000a trans=HTRANS_NONSEQ resp=HRESP_OKAY delay=0
# [TOP MON] t=4905000 psel=1 penable=1 paddr=0x00000028 pwdata=0x00000000
# UVM_INFO ../tb/env/bridge_env_pkg.sv(85) @ 4905000: uvm_test_top.env.scoreboard [SBOARD] [PASS] AHB_READ addr=0x00000028 data=0xa5a5000a
# [TOP MON] t=4975000 psel=1 penable=0 paddr=0x00000094 pwdata=0xca98a652
# UVM_INFO ../tb/agent_ahb/ahb_agent_pkg.sv(251) @ 4976000: uvm_test_top.env.ahb_agnt.mon [AHB_MON] Captured: TXN: AHB_WRITE addr=0x00000094 data=0xca98a652 trans=HTRANS_NONSEQ resp=HRESP_OKAY delay=0
# UVM_INFO ../tb/agent_apb/apb_agent_pkg.sv(123) @ 4985000: uvm_test_top.env.apb_agnt.mon [APB_MON] Captured: TXN: AHB_WRITE addr=0x00000094 data=0xca98a652 trans=HTRANS_NONSEQ resp=HRESP_OKAY delay=0
# [TOP MON] t=4985000 psel=1 penable=1 paddr=0x00000094 pwdata=0xca98a652
# UVM_INFO ../tb/env/bridge_env_pkg.sv(85) @ 4985000: uvm_test_top.env.scoreboard [SBOARD] [PASS] AHB_WRITE addr=0x00000094 data=0xca98a652
# [TOP MON] t=5105000 psel=1 penable=0 paddr=0x000000a0 pwdata=0xb34cc33e
# UVM_INFO ../tb/agent_ahb/ahb_agent_pkg.sv(251) @ 5106000: uvm_test_top.env.ahb_agnt.mon [AHB_MON] Captured: TXN: AHB_WRITE addr=0x000000a0 data=0xb34cc33e trans=HTRANS_NONSEQ resp=HRESP_OKAY delay=0
# UVM_INFO ../tb/agent_apb/apb_agent_pkg.sv(123) @ 5115000: uvm_test_top.env.apb_agnt.mon [APB_MON] Captured: TXN: AHB_WRITE addr=0x000000a0 data=0xb34cc33e trans=HTRANS_NONSEQ resp=HRESP_OKAY delay=0
# [TOP MON] t=5115000 psel=1 penable=1 paddr=0x000000a0 pwdata=0xb34cc33e
# UVM_INFO ../tb/env/bridge_env_pkg.sv(85) @ 5115000: uvm_test_top.env.scoreboard [SBOARD] [PASS] AHB_WRITE addr=0x000000a0 data=0xb34cc33e
# [TOP MON] t=5155000 psel=1 penable=0 paddr=0x00000010 pwdata=0x79e34d6d
# UVM_INFO ../tb/agent_ahb/ahb_agent_pkg.sv(251) @ 5156000: uvm_test_top.env.ahb_agnt.mon [AHB_MON] Captured: TXN: AHB_WRITE addr=0x00000010 data=0x79e34d6d trans=HTRANS_NONSEQ resp=HRESP_OKAY delay=0
# UVM_INFO ../tb/agent_apb/apb_agent_pkg.sv(123) @ 5165000: uvm_test_top.env.apb_agnt.mon [APB_MON] Captured: TXN: AHB_WRITE addr=0x00000010 data=0x79e34d6d trans=HTRANS_NONSEQ resp=HRESP_OKAY delay=0
# [TOP MON] t=5165000 psel=1 penable=1 paddr=0x00000010 pwdata=0x79e34d6d
# UVM_INFO ../tb/env/bridge_env_pkg.sv(85) @ 5165000: uvm_test_top.env.scoreboard [SBOARD] [PASS] AHB_WRITE addr=0x00000010 data=0x79e34d6d
# [TOP MON] t=5265000 psel=1 penable=0 paddr=0x00000080 pwdata=0x16e4e527
# UVM_INFO ../tb/agent_ahb/ahb_agent_pkg.sv(251) @ 5266000: uvm_test_top.env.ahb_agnt.mon [AHB_MON] Captured: TXN: AHB_WRITE addr=0x00000080 data=0x16e4e527 trans=HTRANS_NONSEQ resp=HRESP_OKAY delay=0
# UVM_INFO ../tb/agent_apb/apb_agent_pkg.sv(123) @ 5275000: uvm_test_top.env.apb_agnt.mon [APB_MON] Captured: TXN: AHB_WRITE addr=0x00000080 data=0x16e4e527 trans=HTRANS_NONSEQ resp=HRESP_OKAY delay=0
# [TOP MON] t=5275000 psel=1 penable=1 paddr=0x00000080 pwdata=0x16e4e527
# UVM_INFO ../tb/env/bridge_env_pkg.sv(85) @ 5275000: uvm_test_top.env.scoreboard [SBOARD] [PASS] AHB_WRITE addr=0x00000080 data=0x16e4e527
# [TOP MON] t=5325000 psel=1 penable=0 paddr=0x00000010 pwdata=0x00000000
# UVM_INFO ../tb/agent_ahb/ahb_agent_pkg.sv(251) @ 5326000: uvm_test_top.env.ahb_agnt.mon [AHB_MON] Captured: TXN: AHB_READ addr=0x00000010 data=0x79e34d6d trans=HTRANS_NONSEQ resp=HRESP_OKAY delay=0
# UVM_INFO ../tb/agent_apb/apb_agent_pkg.sv(123) @ 5335000: uvm_test_top.env.apb_agnt.mon [APB_MON] Captured: TXN: AHB_READ addr=0x00000010 data=0x79e34d6d trans=HTRANS_NONSEQ resp=HRESP_OKAY delay=0
# [TOP MON] t=5335000 psel=1 penable=1 paddr=0x00000010 pwdata=0x00000000
# UVM_INFO ../tb/env/bridge_env_pkg.sv(85) @ 5335000: uvm_test_top.env.scoreboard [SBOARD] [PASS] AHB_READ addr=0x00000010 data=0x79e34d6d
# [TOP MON] t=5365000 psel=1 penable=0 paddr=0x00000024 pwdata=0x00000000
# UVM_INFO ../tb/agent_ahb/ahb_agent_pkg.sv(251) @ 5366000: uvm_test_top.env.ahb_agnt.mon [AHB_MON] Captured: TXN: AHB_READ addr=0x00000024 data=0xa5a50009 trans=HTRANS_NONSEQ resp=HRESP_OKAY delay=0
# UVM_INFO ../tb/agent_apb/apb_agent_pkg.sv(123) @ 5375000: uvm_test_top.env.apb_agnt.mon [APB_MON] Captured: TXN: AHB_READ addr=0x00000024 data=0xa5a50009 trans=HTRANS_NONSEQ resp=HRESP_OKAY delay=0
# [TOP MON] t=5375000 psel=1 penable=1 paddr=0x00000024 pwdata=0x00000000
# UVM_INFO ../tb/env/bridge_env_pkg.sv(85) @ 5375000: uvm_test_top.env.scoreboard [SBOARD] [PASS] AHB_READ addr=0x00000024 data=0xa5a50009
# [TOP MON] t=5425000 psel=1 penable=0 paddr=0x0000004c pwdata=0xb7376a90
# UVM_INFO ../tb/agent_ahb/ahb_agent_pkg.sv(251) @ 5426000: uvm_test_top.env.ahb_agnt.mon [AHB_MON] Captured: TXN: AHB_WRITE addr=0x0000004c data=0xb7376a90 trans=HTRANS_NONSEQ resp=HRESP_OKAY delay=0
# UVM_INFO ../tb/agent_apb/apb_agent_pkg.sv(123) @ 5435000: uvm_test_top.env.apb_agnt.mon [APB_MON] Captured: TXN: AHB_WRITE addr=0x0000004c data=0xb7376a90 trans=HTRANS_NONSEQ resp=HRESP_OKAY delay=0
# [TOP MON] t=5435000 psel=1 penable=1 paddr=0x0000004c pwdata=0xb7376a90
# UVM_INFO ../tb/env/bridge_env_pkg.sv(85) @ 5435000: uvm_test_top.env.scoreboard [SBOARD] [PASS] AHB_WRITE addr=0x0000004c data=0xb7376a90
# [TOP MON] t=5485000 psel=1 penable=0 paddr=0x00000064 pwdata=0x00000000
# UVM_INFO ../tb/agent_ahb/ahb_agent_pkg.sv(251) @ 5486000: uvm_test_top.env.ahb_agnt.mon [AHB_MON] Captured: TXN: AHB_READ addr=0x00000064 data=0xa5a50019 trans=HTRANS_NONSEQ resp=HRESP_OKAY delay=0
# UVM_INFO ../tb/agent_apb/apb_agent_pkg.sv(123) @ 5495000: uvm_test_top.env.apb_agnt.mon [APB_MON] Captured: TXN: AHB_READ addr=0x00000064 data=0xa5a50019 trans=HTRANS_NONSEQ resp=HRESP_OKAY delay=0
# [TOP MON] t=5495000 psel=1 penable=1 paddr=0x00000064 pwdata=0x00000000
# UVM_INFO ../tb/env/bridge_env_pkg.sv(85) @ 5495000: uvm_test_top.env.scoreboard [SBOARD] [PASS] AHB_READ addr=0x00000064 data=0xa5a50019
# [TOP MON] t=5595000 psel=1 penable=0 paddr=0x00000024 pwdata=0xbdca9733
# UVM_INFO ../tb/agent_ahb/ahb_agent_pkg.sv(251) @ 5596000: uvm_test_top.env.ahb_agnt.mon [AHB_MON] Captured: TXN: AHB_WRITE addr=0x00000024 data=0xbdca9733 trans=HTRANS_NONSEQ resp=HRESP_OKAY delay=0
# UVM_INFO ../tb/agent_apb/apb_agent_pkg.sv(123) @ 5605000: uvm_test_top.env.apb_agnt.mon [APB_MON] Captured: TXN: AHB_WRITE addr=0x00000024 data=0xbdca9733 trans=HTRANS_NONSEQ resp=HRESP_OKAY delay=0
# [TOP MON] t=5605000 psel=1 penable=1 paddr=0x00000024 pwdata=0xbdca9733
# UVM_INFO ../tb/env/bridge_env_pkg.sv(85) @ 5605000: uvm_test_top.env.scoreboard [SBOARD] [PASS] AHB_WRITE addr=0x00000024 data=0xbdca9733
# [TOP MON] t=5655000 psel=1 penable=0 paddr=0x0000009c pwdata=0xfc34ac96
# UVM_INFO ../tb/agent_ahb/ahb_agent_pkg.sv(251) @ 5656000: uvm_test_top.env.ahb_agnt.mon [AHB_MON] Captured: TXN: AHB_WRITE addr=0x0000009c data=0xfc34ac96 trans=HTRANS_NONSEQ resp=HRESP_OKAY delay=0
# UVM_INFO ../tb/agent_apb/apb_agent_pkg.sv(123) @ 5665000: uvm_test_top.env.apb_agnt.mon [APB_MON] Captured: TXN: AHB_WRITE addr=0x0000009c data=0xfc34ac96 trans=HTRANS_NONSEQ resp=HRESP_OKAY delay=0
# [TOP MON] t=5665000 psel=1 penable=1 paddr=0x0000009c pwdata=0xfc34ac96
# UVM_INFO ../tb/env/bridge_env_pkg.sv(85) @ 5665000: uvm_test_top.env.scoreboard [SBOARD] [PASS] AHB_WRITE addr=0x0000009c data=0xfc34ac96
# [TOP MON] t=5705000 psel=1 penable=0 paddr=0x000000e8 pwdata=0xb19c210a
# UVM_INFO ../tb/agent_ahb/ahb_agent_pkg.sv(251) @ 5706000: uvm_test_top.env.ahb_agnt.mon [AHB_MON] Captured: TXN: AHB_WRITE addr=0x000000e8 data=0xb19c210a trans=HTRANS_NONSEQ resp=HRESP_OKAY delay=0
# UVM_INFO ../tb/agent_apb/apb_agent_pkg.sv(123) @ 5715000: uvm_test_top.env.apb_agnt.mon [APB_MON] Captured: TXN: AHB_WRITE addr=0x000000e8 data=0xb19c210a trans=HTRANS_NONSEQ resp=HRESP_OKAY delay=0
# [TOP MON] t=5715000 psel=1 penable=1 paddr=0x000000e8 pwdata=0xb19c210a
# UVM_INFO ../tb/env/bridge_env_pkg.sv(85) @ 5715000: uvm_test_top.env.scoreboard [SBOARD] [PASS] AHB_WRITE addr=0x000000e8 data=0xb19c210a
# [TOP MON] t=5805000 psel=1 penable=0 paddr=0x000000fc pwdata=0xb8a97d8c
# UVM_INFO ../tb/agent_ahb/ahb_agent_pkg.sv(251) @ 5806000: uvm_test_top.env.ahb_agnt.mon [AHB_MON] Captured: TXN: AHB_WRITE addr=0x000000fc data=0xb8a97d8c trans=HTRANS_NONSEQ resp=HRESP_OKAY delay=0
# UVM_INFO ../tb/agent_apb/apb_agent_pkg.sv(123) @ 5815000: uvm_test_top.env.apb_agnt.mon [APB_MON] Captured: TXN: AHB_WRITE addr=0x000000fc data=0xb8a97d8c trans=HTRANS_NONSEQ resp=HRESP_OKAY delay=0
# [TOP MON] t=5815000 psel=1 penable=1 paddr=0x000000fc pwdata=0xb8a97d8c
# UVM_INFO ../tb/env/bridge_env_pkg.sv(85) @ 5815000: uvm_test_top.env.scoreboard [SBOARD] [PASS] AHB_WRITE addr=0x000000fc data=0xb8a97d8c
# [TOP MON] t=5895000 psel=1 penable=0 paddr=0x00000038 pwdata=0x00000000
# UVM_INFO ../tb/agent_ahb/ahb_agent_pkg.sv(251) @ 5896000: uvm_test_top.env.ahb_agnt.mon [AHB_MON] Captured: TXN: AHB_READ addr=0x00000038 data=0xa5a5000e trans=HTRANS_NONSEQ resp=HRESP_OKAY delay=0
# UVM_INFO ../tb/agent_apb/apb_agent_pkg.sv(123) @ 5905000: uvm_test_top.env.apb_agnt.mon [APB_MON] Captured: TXN: AHB_READ addr=0x00000038 data=0xa5a5000e trans=HTRANS_NONSEQ resp=HRESP_OKAY delay=0
# [TOP MON] t=5905000 psel=1 penable=1 paddr=0x00000038 pwdata=0x00000000
# UVM_INFO ../tb/env/bridge_env_pkg.sv(85) @ 5905000: uvm_test_top.env.scoreboard [SBOARD] [PASS] AHB_READ addr=0x00000038 data=0xa5a5000e
# [TOP MON] t=5935000 psel=1 penable=0 paddr=0x00000068 pwdata=0x00000000
# UVM_INFO ../tb/agent_ahb/ahb_agent_pkg.sv(251) @ 5936000: uvm_test_top.env.ahb_agnt.mon [AHB_MON] Captured: TXN: AHB_READ addr=0x00000068 data=0xbd93e41f trans=HTRANS_NONSEQ resp=HRESP_OKAY delay=0
# UVM_INFO ../tb/agent_apb/apb_agent_pkg.sv(123) @ 5945000: uvm_test_top.env.apb_agnt.mon [APB_MON] Captured: TXN: AHB_READ addr=0x00000068 data=0xbd93e41f trans=HTRANS_NONSEQ resp=HRESP_OKAY delay=0
# [TOP MON] t=5945000 psel=1 penable=1 paddr=0x00000068 pwdata=0x00000000
# UVM_INFO ../tb/env/bridge_env_pkg.sv(85) @ 5945000: uvm_test_top.env.scoreboard [SBOARD] [PASS] AHB_READ addr=0x00000068 data=0xbd93e41f
# [TOP MON] t=6025000 psel=1 penable=0 paddr=0x000000ac pwdata=0x00000000
# UVM_INFO ../tb/agent_ahb/ahb_agent_pkg.sv(251) @ 6026000: uvm_test_top.env.ahb_agnt.mon [AHB_MON] Captured: TXN: AHB_READ addr=0x000000ac data=0xa5a5002b trans=HTRANS_NONSEQ resp=HRESP_OKAY delay=0
# UVM_INFO ../tb/agent_apb/apb_agent_pkg.sv(123) @ 6035000: uvm_test_top.env.apb_agnt.mon [APB_MON] Captured: TXN: AHB_READ addr=0x000000ac data=0xa5a5002b trans=HTRANS_NONSEQ resp=HRESP_OKAY delay=0
# [TOP MON] t=6035000 psel=1 penable=1 paddr=0x000000ac pwdata=0x00000000
# UVM_INFO ../tb/env/bridge_env_pkg.sv(85) @ 6035000: uvm_test_top.env.scoreboard [SBOARD] [PASS] AHB_READ addr=0x000000ac data=0xa5a5002b
# [TOP MON] t=6165000 psel=1 penable=0 paddr=0x00000094 pwdata=0x03839594
# UVM_INFO ../tb/agent_ahb/ahb_agent_pkg.sv(251) @ 6166000: uvm_test_top.env.ahb_agnt.mon [AHB_MON] Captured: TXN: AHB_WRITE addr=0x00000094 data=0x03839594 trans=HTRANS_NONSEQ resp=HRESP_OKAY delay=0
# UVM_INFO ../tb/agent_apb/apb_agent_pkg.sv(123) @ 6175000: uvm_test_top.env.apb_agnt.mon [APB_MON] Captured: TXN: AHB_WRITE addr=0x00000094 data=0x03839594 trans=HTRANS_NONSEQ resp=HRESP_OKAY delay=0
# [TOP MON] t=6175000 psel=1 penable=1 paddr=0x00000094 pwdata=0x03839594
# UVM_INFO ../tb/env/bridge_env_pkg.sv(85) @ 6175000: uvm_test_top.env.scoreboard [SBOARD] [PASS] AHB_WRITE addr=0x00000094 data=0x03839594
# [TOP MON] t=6275000 psel=1 penable=0 paddr=0x00000028 pwdata=0x2849fae9
# UVM_INFO ../tb/agent_ahb/ahb_agent_pkg.sv(251) @ 6276000: uvm_test_top.env.ahb_agnt.mon [AHB_MON] Captured: TXN: AHB_WRITE addr=0x00000028 data=0x2849fae9 trans=HTRANS_NONSEQ resp=HRESP_OKAY delay=0
# UVM_INFO ../tb/agent_apb/apb_agent_pkg.sv(123) @ 6285000: uvm_test_top.env.apb_agnt.mon [APB_MON] Captured: TXN: AHB_WRITE addr=0x00000028 data=0x2849fae9 trans=HTRANS_NONSEQ resp=HRESP_OKAY delay=0
# [TOP MON] t=6285000 psel=1 penable=1 paddr=0x00000028 pwdata=0x2849fae9
# UVM_INFO ../tb/env/bridge_env_pkg.sv(85) @ 6285000: uvm_test_top.env.scoreboard [SBOARD] [PASS] AHB_WRITE addr=0x00000028 data=0x2849fae9
# [TOP MON] t=6375000 psel=1 penable=0 paddr=0x000000c0 pwdata=0xcf550005
# UVM_INFO ../tb/agent_ahb/ahb_agent_pkg.sv(251) @ 6376000: uvm_test_top.env.ahb_agnt.mon [AHB_MON] Captured: TXN: AHB_WRITE addr=0x000000c0 data=0xcf550005 trans=HTRANS_NONSEQ resp=HRESP_OKAY delay=0
# UVM_INFO ../tb/agent_apb/apb_agent_pkg.sv(123) @ 6385000: uvm_test_top.env.apb_agnt.mon [APB_MON] Captured: TXN: AHB_WRITE addr=0x000000c0 data=0xcf550005 trans=HTRANS_NONSEQ resp=HRESP_OKAY delay=0
# [TOP MON] t=6385000 psel=1 penable=1 paddr=0x000000c0 pwdata=0xcf550005
# UVM_INFO ../tb/env/bridge_env_pkg.sv(85) @ 6385000: uvm_test_top.env.scoreboard [SBOARD] [PASS] AHB_WRITE addr=0x000000c0 data=0xcf550005
# [TOP MON] t=6525000 psel=1 penable=0 paddr=0x000000dc pwdata=0x3f976fbd
# UVM_INFO ../tb/agent_ahb/ahb_agent_pkg.sv(251) @ 6526000: uvm_test_top.env.ahb_agnt.mon [AHB_MON] Captured: TXN: AHB_WRITE addr=0x000000dc data=0x3f976fbd trans=HTRANS_NONSEQ resp=HRESP_OKAY delay=0
# UVM_INFO ../tb/agent_apb/apb_agent_pkg.sv(123) @ 6535000: uvm_test_top.env.apb_agnt.mon [APB_MON] Captured: TXN: AHB_WRITE addr=0x000000dc data=0x3f976fbd trans=HTRANS_NONSEQ resp=HRESP_OKAY delay=0
# [TOP MON] t=6535000 psel=1 penable=1 paddr=0x000000dc pwdata=0x3f976fbd
# UVM_INFO ../tb/env/bridge_env_pkg.sv(85) @ 6535000: uvm_test_top.env.scoreboard [SBOARD] [PASS] AHB_WRITE addr=0x000000dc data=0x3f976fbd
# [TOP MON] t=6605000 psel=1 penable=0 paddr=0x000000f8 pwdata=0x4f46028b
# UVM_INFO ../tb/agent_ahb/ahb_agent_pkg.sv(251) @ 6606000: uvm_test_top.env.ahb_agnt.mon [AHB_MON] Captured: TXN: AHB_WRITE addr=0x000000f8 data=0x4f46028b trans=HTRANS_NONSEQ resp=HRESP_OKAY delay=0
# UVM_INFO ../tb/agent_apb/apb_agent_pkg.sv(123) @ 6615000: uvm_test_top.env.apb_agnt.mon [APB_MON] Captured: TXN: AHB_WRITE addr=0x000000f8 data=0x4f46028b trans=HTRANS_NONSEQ resp=HRESP_OKAY delay=0
# [TOP MON] t=6615000 psel=1 penable=1 paddr=0x000000f8 pwdata=0x4f46028b
# UVM_INFO ../tb/env/bridge_env_pkg.sv(85) @ 6615000: uvm_test_top.env.scoreboard [SBOARD] [PASS] AHB_WRITE addr=0x000000f8 data=0x4f46028b
# [TOP MON] t=6685000 psel=1 penable=0 paddr=0x0000008c pwdata=0x18fc15ba
# UVM_INFO ../tb/agent_ahb/ahb_agent_pkg.sv(251) @ 6686000: uvm_test_top.env.ahb_agnt.mon [AHB_MON] Captured: TXN: AHB_WRITE addr=0x0000008c data=0x18fc15ba trans=HTRANS_NONSEQ resp=HRESP_OKAY delay=0
# UVM_INFO ../tb/agent_apb/apb_agent_pkg.sv(123) @ 6695000: uvm_test_top.env.apb_agnt.mon [APB_MON] Captured: TXN: AHB_WRITE addr=0x0000008c data=0x18fc15ba trans=HTRANS_NONSEQ resp=HRESP_OKAY delay=0
# [TOP MON] t=6695000 psel=1 penable=1 paddr=0x0000008c pwdata=0x18fc15ba
# UVM_INFO ../tb/env/bridge_env_pkg.sv(85) @ 6695000: uvm_test_top.env.scoreboard [SBOARD] [PASS] AHB_WRITE addr=0x0000008c data=0x18fc15ba
# [TOP MON] t=6795000 psel=1 penable=0 paddr=0x000000ec pwdata=0x00000000
# UVM_INFO ../tb/agent_ahb/ahb_agent_pkg.sv(251) @ 6796000: uvm_test_top.env.ahb_agnt.mon [AHB_MON] Captured: TXN: AHB_READ addr=0x000000ec data=0x7d313ddf trans=HTRANS_NONSEQ resp=HRESP_OKAY delay=0
# UVM_INFO ../tb/agent_apb/apb_agent_pkg.sv(123) @ 6805000: uvm_test_top.env.apb_agnt.mon [APB_MON] Captured: TXN: AHB_READ addr=0x000000ec data=0x7d313ddf trans=HTRANS_NONSEQ resp=HRESP_OKAY delay=0
# [TOP MON] t=6805000 psel=1 penable=1 paddr=0x000000ec pwdata=0x00000000
# UVM_INFO ../tb/env/bridge_env_pkg.sv(85) @ 6805000: uvm_test_top.env.scoreboard [SBOARD] [PASS] AHB_READ addr=0x000000ec data=0x7d313ddf
# [TOP MON] t=6895000 psel=1 penable=0 paddr=0x000000c4 pwdata=0x05bf81d9
# UVM_INFO ../tb/agent_ahb/ahb_agent_pkg.sv(251) @ 6896000: uvm_test_top.env.ahb_agnt.mon [AHB_MON] Captured: TXN: AHB_WRITE addr=0x000000c4 data=0x05bf81d9 trans=HTRANS_NONSEQ resp=HRESP_OKAY delay=0
# UVM_INFO ../tb/agent_apb/apb_agent_pkg.sv(123) @ 6905000: uvm_test_top.env.apb_agnt.mon [APB_MON] Captured: TXN: AHB_WRITE addr=0x000000c4 data=0x05bf81d9 trans=HTRANS_NONSEQ resp=HRESP_OKAY delay=0
# [TOP MON] t=6905000 psel=1 penable=1 paddr=0x000000c4 pwdata=0x05bf81d9
# UVM_INFO ../tb/env/bridge_env_pkg.sv(85) @ 6905000: uvm_test_top.env.scoreboard [SBOARD] [PASS] AHB_WRITE addr=0x000000c4 data=0x05bf81d9
# [TOP MON] t=6995000 psel=1 penable=0 paddr=0x0000001c pwdata=0xc12b7c8f
# UVM_INFO ../tb/agent_ahb/ahb_agent_pkg.sv(251) @ 6996000: uvm_test_top.env.ahb_agnt.mon [AHB_MON] Captured: TXN: AHB_WRITE addr=0x0000001c data=0xc12b7c8f trans=HTRANS_NONSEQ resp=HRESP_OKAY delay=0
# UVM_INFO ../tb/agent_apb/apb_agent_pkg.sv(123) @ 7005000: uvm_test_top.env.apb_agnt.mon [APB_MON] Captured: TXN: AHB_WRITE addr=0x0000001c data=0xc12b7c8f trans=HTRANS_NONSEQ resp=HRESP_OKAY delay=0
# [TOP MON] t=7005000 psel=1 penable=1 paddr=0x0000001c pwdata=0xc12b7c8f
# UVM_INFO ../tb/env/bridge_env_pkg.sv(85) @ 7005000: uvm_test_top.env.scoreboard [SBOARD] [PASS] AHB_WRITE addr=0x0000001c data=0xc12b7c8f
# [TOP MON] t=7055000 psel=1 penable=0 paddr=0x00000034 pwdata=0xdeb65b48
# UVM_INFO ../tb/agent_ahb/ahb_agent_pkg.sv(251) @ 7056000: uvm_test_top.env.ahb_agnt.mon [AHB_MON] Captured: TXN: AHB_WRITE addr=0x00000034 data=0xdeb65b48 trans=HTRANS_NONSEQ resp=HRESP_OKAY delay=0
# UVM_INFO ../tb/agent_apb/apb_agent_pkg.sv(123) @ 7065000: uvm_test_top.env.apb_agnt.mon [APB_MON] Captured: TXN: AHB_WRITE addr=0x00000034 data=0xdeb65b48 trans=HTRANS_NONSEQ resp=HRESP_OKAY delay=0
# [TOP MON] t=7065000 psel=1 penable=1 paddr=0x00000034 pwdata=0xdeb65b48
# UVM_INFO ../tb/env/bridge_env_pkg.sv(85) @ 7065000: uvm_test_top.env.scoreboard [SBOARD] [PASS] AHB_WRITE addr=0x00000034 data=0xdeb65b48
# [TOP MON] t=7165000 psel=1 penable=0 paddr=0x00000060 pwdata=0x3ee189e1
# UVM_INFO ../tb/agent_ahb/ahb_agent_pkg.sv(251) @ 7166000: uvm_test_top.env.ahb_agnt.mon [AHB_MON] Captured: TXN: AHB_WRITE addr=0x00000060 data=0x3ee189e1 trans=HTRANS_NONSEQ resp=HRESP_OKAY delay=0
# UVM_INFO ../tb/agent_apb/apb_agent_pkg.sv(123) @ 7175000: uvm_test_top.env.apb_agnt.mon [APB_MON] Captured: TXN: AHB_WRITE addr=0x00000060 data=0x3ee189e1 trans=HTRANS_NONSEQ resp=HRESP_OKAY delay=0
# [TOP MON] t=7175000 psel=1 penable=1 paddr=0x00000060 pwdata=0x3ee189e1
# UVM_INFO ../tb/env/bridge_env_pkg.sv(85) @ 7175000: uvm_test_top.env.scoreboard [SBOARD] [PASS] AHB_WRITE addr=0x00000060 data=0x3ee189e1
# [TOP MON] t=7285000 psel=1 penable=0 paddr=0x00000048 pwdata=0xf3d1117a
# UVM_INFO ../tb/agent_ahb/ahb_agent_pkg.sv(251) @ 7286000: uvm_test_top.env.ahb_agnt.mon [AHB_MON] Captured: TXN: AHB_WRITE addr=0x00000048 data=0xf3d1117a trans=HTRANS_NONSEQ resp=HRESP_OKAY delay=0
# UVM_INFO ../tb/agent_apb/apb_agent_pkg.sv(123) @ 7295000: uvm_test_top.env.apb_agnt.mon [APB_MON] Captured: TXN: AHB_WRITE addr=0x00000048 data=0xf3d1117a trans=HTRANS_NONSEQ resp=HRESP_OKAY delay=0
# [TOP MON] t=7295000 psel=1 penable=1 paddr=0x00000048 pwdata=0xf3d1117a
# UVM_INFO ../tb/env/bridge_env_pkg.sv(85) @ 7295000: uvm_test_top.env.scoreboard [SBOARD] [PASS] AHB_WRITE addr=0x00000048 data=0xf3d1117a
# [TOP MON] t=7325000 psel=1 penable=0 paddr=0x000000f4 pwdata=0x00000000
# UVM_INFO ../tb/agent_ahb/ahb_agent_pkg.sv(251) @ 7326000: uvm_test_top.env.ahb_agnt.mon [AHB_MON] Captured: TXN: AHB_READ addr=0x000000f4 data=0xa5a5003d trans=HTRANS_NONSEQ resp=HRESP_OKAY delay=0
# UVM_INFO ../tb/agent_apb/apb_agent_pkg.sv(123) @ 7335000: uvm_test_top.env.apb_agnt.mon [APB_MON] Captured: TXN: AHB_READ addr=0x000000f4 data=0xa5a5003d trans=HTRANS_NONSEQ resp=HRESP_OKAY delay=0
# [TOP MON] t=7335000 psel=1 penable=1 paddr=0x000000f4 pwdata=0x00000000
# UVM_INFO ../tb/env/bridge_env_pkg.sv(85) @ 7335000: uvm_test_top.env.scoreboard [SBOARD] [PASS] AHB_READ addr=0x000000f4 data=0xa5a5003d
# [TOP MON] t=7445000 psel=1 penable=0 paddr=0x0000000c pwdata=0x00000000
# UVM_INFO ../tb/agent_ahb/ahb_agent_pkg.sv(251) @ 7446000: uvm_test_top.env.ahb_agnt.mon [AHB_MON] Captured: TXN: AHB_READ addr=0x0000000c data=0xe4c83089 trans=HTRANS_NONSEQ resp=HRESP_OKAY delay=0
# UVM_INFO ../tb/agent_apb/apb_agent_pkg.sv(123) @ 7455000: uvm_test_top.env.apb_agnt.mon [APB_MON] Captured: TXN: AHB_READ addr=0x0000000c data=0xe4c83089 trans=HTRANS_NONSEQ resp=HRESP_OKAY delay=0
# [TOP MON] t=7455000 psel=1 penable=1 paddr=0x0000000c pwdata=0x00000000
# UVM_INFO ../tb/env/bridge_env_pkg.sv(85) @ 7455000: uvm_test_top.env.scoreboard [SBOARD] [PASS] AHB_READ addr=0x0000000c data=0xe4c83089
# [TOP MON] t=7525000 psel=1 penable=0 paddr=0x000000c4 pwdata=0x00000000
# UVM_INFO ../tb/agent_ahb/ahb_agent_pkg.sv(251) @ 7526000: uvm_test_top.env.ahb_agnt.mon [AHB_MON] Captured: TXN: AHB_READ addr=0x000000c4 data=0x05bf81d9 trans=HTRANS_NONSEQ resp=HRESP_OKAY delay=0
# UVM_INFO ../tb/agent_apb/apb_agent_pkg.sv(123) @ 7535000: uvm_test_top.env.apb_agnt.mon [APB_MON] Captured: TXN: AHB_READ addr=0x000000c4 data=0x05bf81d9 trans=HTRANS_NONSEQ resp=HRESP_OKAY delay=0
# [TOP MON] t=7535000 psel=1 penable=1 paddr=0x000000c4 pwdata=0x00000000
# UVM_INFO ../tb/env/bridge_env_pkg.sv(85) @ 7535000: uvm_test_top.env.scoreboard [SBOARD] [PASS] AHB_READ addr=0x000000c4 data=0x05bf81d9
# [TOP MON] t=7645000 psel=1 penable=0 paddr=0x0000008c pwdata=0x6d1fb282
# UVM_INFO ../tb/agent_ahb/ahb_agent_pkg.sv(251) @ 7646000: uvm_test_top.env.ahb_agnt.mon [AHB_MON] Captured: TXN: AHB_WRITE addr=0x0000008c data=0x6d1fb282 trans=HTRANS_NONSEQ resp=HRESP_OKAY delay=0
# UVM_INFO ../tb/agent_apb/apb_agent_pkg.sv(123) @ 7655000: uvm_test_top.env.apb_agnt.mon [APB_MON] Captured: TXN: AHB_WRITE addr=0x0000008c data=0x6d1fb282 trans=HTRANS_NONSEQ resp=HRESP_OKAY delay=0
# [TOP MON] t=7655000 psel=1 penable=1 paddr=0x0000008c pwdata=0x6d1fb282
# UVM_INFO ../tb/env/bridge_env_pkg.sv(85) @ 7655000: uvm_test_top.env.scoreboard [SBOARD] [PASS] AHB_WRITE addr=0x0000008c data=0x6d1fb282
# [TOP MON] t=7765000 psel=1 penable=0 paddr=0x0000000c pwdata=0x3ef33f94
# UVM_INFO ../tb/agent_ahb/ahb_agent_pkg.sv(251) @ 7766000: uvm_test_top.env.ahb_agnt.mon [AHB_MON] Captured: TXN: AHB_WRITE addr=0x0000000c data=0x3ef33f94 trans=HTRANS_NONSEQ resp=HRESP_OKAY delay=0
# UVM_INFO ../tb/agent_apb/apb_agent_pkg.sv(123) @ 7775000: uvm_test_top.env.apb_agnt.mon [APB_MON] Captured: TXN: AHB_WRITE addr=0x0000000c data=0x3ef33f94 trans=HTRANS_NONSEQ resp=HRESP_OKAY delay=0
# [TOP MON] t=7775000 psel=1 penable=1 paddr=0x0000000c pwdata=0x3ef33f94
# UVM_INFO ../tb/env/bridge_env_pkg.sv(85) @ 7775000: uvm_test_top.env.scoreboard [SBOARD] [PASS] AHB_WRITE addr=0x0000000c data=0x3ef33f94
# [TOP MON] t=7865000 psel=1 penable=0 paddr=0x00000044 pwdata=0x7c26371f
# UVM_INFO ../tb/agent_ahb/ahb_agent_pkg.sv(251) @ 7866000: uvm_test_top.env.ahb_agnt.mon [AHB_MON] Captured: TXN: AHB_WRITE addr=0x00000044 data=0x7c26371f trans=HTRANS_NONSEQ resp=HRESP_OKAY delay=0
# UVM_INFO ../tb/agent_apb/apb_agent_pkg.sv(123) @ 7875000: uvm_test_top.env.apb_agnt.mon [APB_MON] Captured: TXN: AHB_WRITE addr=0x00000044 data=0x7c26371f trans=HTRANS_NONSEQ resp=HRESP_OKAY delay=0
# [TOP MON] t=7875000 psel=1 penable=1 paddr=0x00000044 pwdata=0x7c26371f
# UVM_INFO ../tb/env/bridge_env_pkg.sv(85) @ 7875000: uvm_test_top.env.scoreboard [SBOARD] [PASS] AHB_WRITE addr=0x00000044 data=0x7c26371f
# [TOP MON] t=7915000 psel=1 penable=0 paddr=0x000000dc pwdata=0xf2e1b86c
# UVM_INFO ../tb/agent_ahb/ahb_agent_pkg.sv(251) @ 7916000: uvm_test_top.env.ahb_agnt.mon [AHB_MON] Captured: TXN: AHB_WRITE addr=0x000000dc data=0xf2e1b86c trans=HTRANS_NONSEQ resp=HRESP_OKAY delay=0
# UVM_INFO ../tb/agent_apb/apb_agent_pkg.sv(123) @ 7925000: uvm_test_top.env.apb_agnt.mon [APB_MON] Captured: TXN: AHB_WRITE addr=0x000000dc data=0xf2e1b86c trans=HTRANS_NONSEQ resp=HRESP_OKAY delay=0
# [TOP MON] t=7925000 psel=1 penable=1 paddr=0x000000dc pwdata=0xf2e1b86c
# UVM_INFO ../tb/env/bridge_env_pkg.sv(85) @ 7925000: uvm_test_top.env.scoreboard [SBOARD] [PASS] AHB_WRITE addr=0x000000dc data=0xf2e1b86c
# [TOP MON] t=8015000 psel=1 penable=0 paddr=0x00000084 pwdata=0xd3c826c4
# UVM_INFO ../tb/agent_ahb/ahb_agent_pkg.sv(251) @ 8016000: uvm_test_top.env.ahb_agnt.mon [AHB_MON] Captured: TXN: AHB_WRITE addr=0x00000084 data=0xd3c826c4 trans=HTRANS_NONSEQ resp=HRESP_OKAY delay=0
# UVM_INFO ../tb/agent_apb/apb_agent_pkg.sv(123) @ 8025000: uvm_test_top.env.apb_agnt.mon [APB_MON] Captured: TXN: AHB_WRITE addr=0x00000084 data=0xd3c826c4 trans=HTRANS_NONSEQ resp=HRESP_OKAY delay=0
# [TOP MON] t=8025000 psel=1 penable=1 paddr=0x00000084 pwdata=0xd3c826c4
# UVM_INFO ../tb/env/bridge_env_pkg.sv(85) @ 8025000: uvm_test_top.env.scoreboard [SBOARD] [PASS] AHB_WRITE addr=0x00000084 data=0xd3c826c4
# [TOP MON] t=8135000 psel=1 penable=0 paddr=0x00000010 pwdata=0x00000000
# UVM_INFO ../tb/agent_ahb/ahb_agent_pkg.sv(251) @ 8136000: uvm_test_top.env.ahb_agnt.mon [AHB_MON] Captured: TXN: AHB_READ addr=0x00000010 data=0x79e34d6d trans=HTRANS_NONSEQ resp=HRESP_OKAY delay=0
# UVM_INFO ../tb/agent_apb/apb_agent_pkg.sv(123) @ 8145000: uvm_test_top.env.apb_agnt.mon [APB_MON] Captured: TXN: AHB_READ addr=0x00000010 data=0x79e34d6d trans=HTRANS_NONSEQ resp=HRESP_OKAY delay=0
# [TOP MON] t=8145000 psel=1 penable=1 paddr=0x00000010 pwdata=0x00000000
# UVM_INFO ../tb/env/bridge_env_pkg.sv(85) @ 8145000: uvm_test_top.env.scoreboard [SBOARD] [PASS] AHB_READ addr=0x00000010 data=0x79e34d6d
# [TOP MON] t=8225000 psel=1 penable=0 paddr=0x00000070 pwdata=0x6e678803
# UVM_INFO ../tb/agent_ahb/ahb_agent_pkg.sv(251) @ 8226000: uvm_test_top.env.ahb_agnt.mon [AHB_MON] Captured: TXN: AHB_WRITE addr=0x00000070 data=0x6e678803 trans=HTRANS_NONSEQ resp=HRESP_OKAY delay=0
# UVM_INFO ../tb/agent_apb/apb_agent_pkg.sv(123) @ 8235000: uvm_test_top.env.apb_agnt.mon [APB_MON] Captured: TXN: AHB_WRITE addr=0x00000070 data=0x6e678803 trans=HTRANS_NONSEQ resp=HRESP_OKAY delay=0
# [TOP MON] t=8235000 psel=1 penable=1 paddr=0x00000070 pwdata=0x6e678803
# UVM_INFO ../tb/env/bridge_env_pkg.sv(85) @ 8235000: uvm_test_top.env.scoreboard [SBOARD] [PASS] AHB_WRITE addr=0x00000070 data=0x6e678803
# [TOP MON] t=8355000 psel=1 penable=0 paddr=0x00000048 pwdata=0xcef6b74c
# UVM_INFO ../tb/agent_ahb/ahb_agent_pkg.sv(251) @ 8356000: uvm_test_top.env.ahb_agnt.mon [AHB_MON] Captured: TXN: AHB_WRITE addr=0x00000048 data=0xcef6b74c trans=HTRANS_NONSEQ resp=HRESP_OKAY delay=0
# UVM_INFO ../tb/agent_apb/apb_agent_pkg.sv(123) @ 8365000: uvm_test_top.env.apb_agnt.mon [APB_MON] Captured: TXN: AHB_WRITE addr=0x00000048 data=0xcef6b74c trans=HTRANS_NONSEQ resp=HRESP_OKAY delay=0
# [TOP MON] t=8365000 psel=1 penable=1 paddr=0x00000048 pwdata=0xcef6b74c
# UVM_INFO ../tb/env/bridge_env_pkg.sv(85) @ 8365000: uvm_test_top.env.scoreboard [SBOARD] [PASS] AHB_WRITE addr=0x00000048 data=0xcef6b74c
# [TOP MON] t=8425000 psel=1 penable=0 paddr=0x00000098 pwdata=0x38da2036
# UVM_INFO ../tb/agent_ahb/ahb_agent_pkg.sv(251) @ 8426000: uvm_test_top.env.ahb_agnt.mon [AHB_MON] Captured: TXN: AHB_WRITE addr=0x00000098 data=0x38da2036 trans=HTRANS_NONSEQ resp=HRESP_OKAY delay=0
# UVM_INFO ../tb/agent_apb/apb_agent_pkg.sv(123) @ 8435000: uvm_test_top.env.apb_agnt.mon [APB_MON] Captured: TXN: AHB_WRITE addr=0x00000098 data=0x38da2036 trans=HTRANS_NONSEQ resp=HRESP_OKAY delay=0
# [TOP MON] t=8435000 psel=1 penable=1 paddr=0x00000098 pwdata=0x38da2036
# UVM_INFO ../tb/env/bridge_env_pkg.sv(85) @ 8435000: uvm_test_top.env.scoreboard [SBOARD] [PASS] AHB_WRITE addr=0x00000098 data=0x38da2036
# [TOP MON] t=8495000 psel=1 penable=0 paddr=0x00000054 pwdata=0x00000000
# UVM_INFO ../tb/agent_ahb/ahb_agent_pkg.sv(251) @ 8496000: uvm_test_top.env.ahb_agnt.mon [AHB_MON] Captured: TXN: AHB_READ addr=0x00000054 data=0xa5a50015 trans=HTRANS_NONSEQ resp=HRESP_OKAY delay=0
# UVM_INFO ../tb/agent_apb/apb_agent_pkg.sv(123) @ 8505000: uvm_test_top.env.apb_agnt.mon [APB_MON] Captured: TXN: AHB_READ addr=0x00000054 data=0xa5a50015 trans=HTRANS_NONSEQ resp=HRESP_OKAY delay=0
# [TOP MON] t=8505000 psel=1 penable=1 paddr=0x00000054 pwdata=0x00000000
# UVM_INFO ../tb/env/bridge_env_pkg.sv(85) @ 8505000: uvm_test_top.env.scoreboard [SBOARD] [PASS] AHB_READ addr=0x00000054 data=0xa5a50015
# [TOP MON] t=8615000 psel=1 penable=0 paddr=0x000000a8 pwdata=0x00000000
# UVM_INFO ../tb/agent_ahb/ahb_agent_pkg.sv(251) @ 8616000: uvm_test_top.env.ahb_agnt.mon [AHB_MON] Captured: TXN: AHB_READ addr=0x000000a8 data=0xa5a5002a trans=HTRANS_NONSEQ resp=HRESP_OKAY delay=0
# UVM_INFO ../tb/agent_apb/apb_agent_pkg.sv(123) @ 8625000: uvm_test_top.env.apb_agnt.mon [APB_MON] Captured: TXN: AHB_READ addr=0x000000a8 data=0xa5a5002a trans=HTRANS_NONSEQ resp=HRESP_OKAY delay=0
# [TOP MON] t=8625000 psel=1 penable=1 paddr=0x000000a8 pwdata=0x00000000
# UVM_INFO ../tb/env/bridge_env_pkg.sv(85) @ 8625000: uvm_test_top.env.scoreboard [SBOARD] [PASS] AHB_READ addr=0x000000a8 data=0xa5a5002a
# [TOP MON] t=8685000 psel=1 penable=0 paddr=0x000000f8 pwdata=0x00000000
# UVM_INFO ../tb/agent_ahb/ahb_agent_pkg.sv(251) @ 8686000: uvm_test_top.env.ahb_agnt.mon [AHB_MON] Captured: TXN: AHB_READ addr=0x000000f8 data=0x4f46028b trans=HTRANS_NONSEQ resp=HRESP_OKAY delay=0
# UVM_INFO ../tb/agent_apb/apb_agent_pkg.sv(123) @ 8695000: uvm_test_top.env.apb_agnt.mon [APB_MON] Captured: TXN: AHB_READ addr=0x000000f8 data=0x4f46028b trans=HTRANS_NONSEQ resp=HRESP_OKAY delay=0
# [TOP MON] t=8695000 psel=1 penable=1 paddr=0x000000f8 pwdata=0x00000000
# UVM_INFO ../tb/env/bridge_env_pkg.sv(85) @ 8695000: uvm_test_top.env.scoreboard [SBOARD] [PASS] AHB_READ addr=0x000000f8 data=0x4f46028b
# [TOP MON] t=8775000 psel=1 penable=0 paddr=0x000000b0 pwdata=0x431a198e
# UVM_INFO ../tb/agent_ahb/ahb_agent_pkg.sv(251) @ 8776000: uvm_test_top.env.ahb_agnt.mon [AHB_MON] Captured: TXN: AHB_WRITE addr=0x000000b0 data=0x431a198e trans=HTRANS_NONSEQ resp=HRESP_OKAY delay=0
# UVM_INFO ../tb/agent_apb/apb_agent_pkg.sv(123) @ 8785000: uvm_test_top.env.apb_agnt.mon [APB_MON] Captured: TXN: AHB_WRITE addr=0x000000b0 data=0x431a198e trans=HTRANS_NONSEQ resp=HRESP_OKAY delay=0
# [TOP MON] t=8785000 psel=1 penable=1 paddr=0x000000b0 pwdata=0x431a198e
# UVM_INFO ../tb/env/bridge_env_pkg.sv(85) @ 8785000: uvm_test_top.env.scoreboard [SBOARD] [PASS] AHB_WRITE addr=0x000000b0 data=0x431a198e
# [TOP MON] t=8875000 psel=1 penable=0 paddr=0x000000c0 pwdata=0xe1d7495a
# UVM_INFO ../tb/agent_ahb/ahb_agent_pkg.sv(251) @ 8876000: uvm_test_top.env.ahb_agnt.mon [AHB_MON] Captured: TXN: AHB_WRITE addr=0x000000c0 data=0xe1d7495a trans=HTRANS_NONSEQ resp=HRESP_OKAY delay=0
# UVM_INFO ../tb/agent_apb/apb_agent_pkg.sv(123) @ 8885000: uvm_test_top.env.apb_agnt.mon [APB_MON] Captured: TXN: AHB_WRITE addr=0x000000c0 data=0xe1d7495a trans=HTRANS_NONSEQ resp=HRESP_OKAY delay=0
# [TOP MON] t=8885000 psel=1 penable=1 paddr=0x000000c0 pwdata=0xe1d7495a
# UVM_INFO ../tb/env/bridge_env_pkg.sv(85) @ 8885000: uvm_test_top.env.scoreboard [SBOARD] [PASS] AHB_WRITE addr=0x000000c0 data=0xe1d7495a
# [TOP MON] t=8995000 psel=1 penable=0 paddr=0x00000060 pwdata=0x00000000
# UVM_INFO ../tb/agent_ahb/ahb_agent_pkg.sv(251) @ 8996000: uvm_test_top.env.ahb_agnt.mon [AHB_MON] Captured: TXN: AHB_READ addr=0x00000060 data=0x3ee189e1 trans=HTRANS_NONSEQ resp=HRESP_OKAY delay=0
# UVM_INFO ../tb/agent_apb/apb_agent_pkg.sv(123) @ 9005000: uvm_test_top.env.apb_agnt.mon [APB_MON] Captured: TXN: AHB_READ addr=0x00000060 data=0x3ee189e1 trans=HTRANS_NONSEQ resp=HRESP_OKAY delay=0
# [TOP MON] t=9005000 psel=1 penable=1 paddr=0x00000060 pwdata=0x00000000
# UVM_INFO ../tb/env/bridge_env_pkg.sv(85) @ 9005000: uvm_test_top.env.scoreboard [SBOARD] [PASS] AHB_READ addr=0x00000060 data=0x3ee189e1
# [TOP MON] t=9075000 psel=1 penable=0 paddr=0x00000034 pwdata=0xbc7673b8
# UVM_INFO ../tb/agent_ahb/ahb_agent_pkg.sv(251) @ 9076000: uvm_test_top.env.ahb_agnt.mon [AHB_MON] Captured: TXN: AHB_WRITE addr=0x00000034 data=0xbc7673b8 trans=HTRANS_NONSEQ resp=HRESP_OKAY delay=0
# UVM_INFO ../tb/agent_apb/apb_agent_pkg.sv(123) @ 9085000: uvm_test_top.env.apb_agnt.mon [APB_MON] Captured: TXN: AHB_WRITE addr=0x00000034 data=0xbc7673b8 trans=HTRANS_NONSEQ resp=HRESP_OKAY delay=0
# [TOP MON] t=9085000 psel=1 penable=1 paddr=0x00000034 pwdata=0xbc7673b8
# UVM_INFO ../tb/env/bridge_env_pkg.sv(85) @ 9085000: uvm_test_top.env.scoreboard [SBOARD] [PASS] AHB_WRITE addr=0x00000034 data=0xbc7673b8
# [TOP MON] t=9185000 psel=1 penable=0 paddr=0x000000c4 pwdata=0x00000000
# UVM_INFO ../tb/agent_ahb/ahb_agent_pkg.sv(251) @ 9186000: uvm_test_top.env.ahb_agnt.mon [AHB_MON] Captured: TXN: AHB_READ addr=0x000000c4 data=0x05bf81d9 trans=HTRANS_NONSEQ resp=HRESP_OKAY delay=0
# UVM_INFO ../tb/agent_apb/apb_agent_pkg.sv(123) @ 9195000: uvm_test_top.env.apb_agnt.mon [APB_MON] Captured: TXN: AHB_READ addr=0x000000c4 data=0x05bf81d9 trans=HTRANS_NONSEQ resp=HRESP_OKAY delay=0
# [TOP MON] t=9195000 psel=1 penable=1 paddr=0x000000c4 pwdata=0x00000000
# UVM_INFO ../tb/env/bridge_env_pkg.sv(85) @ 9195000: uvm_test_top.env.scoreboard [SBOARD] [PASS] AHB_READ addr=0x000000c4 data=0x05bf81d9
# [TOP MON] t=9335000 psel=1 penable=0 paddr=0x000000e4 pwdata=0x8bbadcd4
# UVM_INFO ../tb/agent_ahb/ahb_agent_pkg.sv(251) @ 9336000: uvm_test_top.env.ahb_agnt.mon [AHB_MON] Captured: TXN: AHB_WRITE addr=0x000000e4 data=0x8bbadcd4 trans=HTRANS_NONSEQ resp=HRESP_OKAY delay=0
# UVM_INFO ../tb/agent_apb/apb_agent_pkg.sv(123) @ 9345000: uvm_test_top.env.apb_agnt.mon [APB_MON] Captured: TXN: AHB_WRITE addr=0x000000e4 data=0x8bbadcd4 trans=HTRANS_NONSEQ resp=HRESP_OKAY delay=0
# [TOP MON] t=9345000 psel=1 penable=1 paddr=0x000000e4 pwdata=0x8bbadcd4
# UVM_INFO ../tb/env/bridge_env_pkg.sv(85) @ 9345000: uvm_test_top.env.scoreboard [SBOARD] [PASS] AHB_WRITE addr=0x000000e4 data=0x8bbadcd4
# [TOP MON] t=9455000 psel=1 penable=0 paddr=0x00000064 pwdata=0xdb52c58f
# UVM_INFO ../tb/agent_ahb/ahb_agent_pkg.sv(251) @ 9456000: uvm_test_top.env.ahb_agnt.mon [AHB_MON] Captured: TXN: AHB_WRITE addr=0x00000064 data=0xdb52c58f trans=HTRANS_NONSEQ resp=HRESP_OKAY delay=0
# UVM_INFO ../tb/agent_apb/apb_agent_pkg.sv(123) @ 9465000: uvm_test_top.env.apb_agnt.mon [APB_MON] Captured: TXN: AHB_WRITE addr=0x00000064 data=0xdb52c58f trans=HTRANS_NONSEQ resp=HRESP_OKAY delay=0
# [TOP MON] t=9465000 psel=1 penable=1 paddr=0x00000064 pwdata=0xdb52c58f
# UVM_INFO ../tb/env/bridge_env_pkg.sv(85) @ 9465000: uvm_test_top.env.scoreboard [SBOARD] [PASS] AHB_WRITE addr=0x00000064 data=0xdb52c58f
# [TOP MON] t=9575000 psel=1 penable=0 paddr=0x000000d0 pwdata=0x00000000
# UVM_INFO ../tb/agent_ahb/ahb_agent_pkg.sv(251) @ 9576000: uvm_test_top.env.ahb_agnt.mon [AHB_MON] Captured: TXN: AHB_READ addr=0x000000d0 data=0xa5a50034 trans=HTRANS_NONSEQ resp=HRESP_OKAY delay=0
# UVM_INFO ../tb/agent_apb/apb_agent_pkg.sv(123) @ 9585000: uvm_test_top.env.apb_agnt.mon [APB_MON] Captured: TXN: AHB_READ addr=0x000000d0 data=0xa5a50034 trans=HTRANS_NONSEQ resp=HRESP_OKAY delay=0
# [TOP MON] t=9585000 psel=1 penable=1 paddr=0x000000d0 pwdata=0x00000000
# UVM_INFO ../tb/env/bridge_env_pkg.sv(85) @ 9585000: uvm_test_top.env.scoreboard [SBOARD] [PASS] AHB_READ addr=0x000000d0 data=0xa5a50034
# UVM_INFO verilog_src/uvm-1.1d/src/base/uvm_objection.svh(1267) @ 9640000: reporter [TEST_DONE] 'run' phase is ready to proceed to the 'extract' phase
# UVM_INFO ../tb/env/bridge_env_pkg.sv(194) @ 9640000: uvm_test_top.env.coverage [COV] ==========================================
# UVM_INFO ../tb/env/bridge_env_pkg.sv(195) @ 9640000: uvm_test_top.env.coverage [COV]        COVERAGE REPORT                   
# UVM_INFO ../tb/env/bridge_env_pkg.sv(196) @ 9640000: uvm_test_top.env.coverage [COV] ==========================================
# UVM_INFO ../tb/env/bridge_env_pkg.sv(197) @ 9640000: uvm_test_top.env.coverage [COV]   Transfer Type : 75.0%
# UVM_INFO ../tb/env/bridge_env_pkg.sv(200) @ 9640000: uvm_test_top.env.coverage [COV]   Address Range : 100.0%
# UVM_INFO ../tb/env/bridge_env_pkg.sv(203) @ 9640000: uvm_test_top.env.coverage [COV]   Data Corners  : 100.0%
# UVM_INFO ../tb/env/bridge_env_pkg.sv(206) @ 9640000: uvm_test_top.env.coverage [COV]   Cross Coverage: 100.0%
# UVM_INFO ../tb/env/bridge_env_pkg.sv(209) @ 9640000: uvm_test_top.env.coverage [COV]   Delay Coverage: 33.3%
# UVM_INFO ../tb/env/bridge_env_pkg.sv(212) @ 9640000: uvm_test_top.env.coverage [COV] ==========================================
# UVM_INFO ../tb/env/bridge_env_pkg.sv(99) @ 9640000: uvm_test_top.env.scoreboard [SBOARD] ==========================================
# UVM_INFO ../tb/env/bridge_env_pkg.sv(100) @ 9640000: uvm_test_top.env.scoreboard [SBOARD]        SCOREBOARD FINAL REPORT           
# UVM_INFO ../tb/env/bridge_env_pkg.sv(101) @ 9640000: uvm_test_top.env.scoreboard [SBOARD] ==========================================
# UVM_INFO ../tb/env/bridge_env_pkg.sv(102) @ 9640000: uvm_test_top.env.scoreboard [SBOARD]   Total  : 108
# UVM_INFO ../tb/env/bridge_env_pkg.sv(103) @ 9640000: uvm_test_top.env.scoreboard [SBOARD]   Passed : 108
# UVM_INFO ../tb/env/bridge_env_pkg.sv(104) @ 9640000: uvm_test_top.env.scoreboard [SBOARD]   Failed : 0
# UVM_INFO ../tb/env/bridge_env_pkg.sv(106) @ 9640000: uvm_test_top.env.scoreboard [SBOARD]   STATUS : ALL CHECKS PASSED
# UVM_INFO ../tb/env/bridge_env_pkg.sv(110) @ 9640000: uvm_test_top.env.scoreboard [SBOARD] ==========================================
# 
# --- UVM Report Summary ---
# 
# ** Report counts by severity
# UVM_INFO :  351
# UVM_WARNING :    2
# UVM_ERROR :    0
# UVM_FATAL :    0
# ** Report counts by id
# [AHB_MON]   108
# [APB_MON]   108
# [CORNERS_SEQ]     2
# [CORNERS_TEST]     1
# [COV]     9
# [Questa UVM]     2
# [RAND_SEQ]     1
# [RNTST]     1
# [SBOARD]   116
# [TEST_DONE]     1
# [TOP]     1
# [TYPDUP]     2
# [UVMTOP]     1
# ** Note: $finish    : /home/cad/eda/Questa_2019/questasim/linux_x86_64/../verilog_src/uvm-1.1d/src/base/uvm_root.svh(430)
#    Time: 9640 ns  Iteration: 61  Instance: /tb_uvm_top
# End time: 15:02:38 on Mar 16,2026, Elapsed time: 0:00:04
# Errors: 0, Warnings: 0
